# vsim -c -coverage -debugDB -sv_seed random -voptargs="+acc" work.ahb_tb_top "+TESTNAME=FIXED_ADDR" -onfinish final -do "run -all; coverage save -onexit FIXED_ADDR.ucdb; quit -sim;" 
# Start time: 23:52:08 on Jul 25,2026
# ** Note: (vsim-3813) Design is being optimized due to module recompilation...
# ** Note: (vsim-8611) Generating debug db.
# Loading sv_std.std
# Loading work.testcase_pkg(fast)
# Loading work.ahb_pkg(fast)
# Loading work.testbench_sv_unit(fast)
# Loading work.ahb_tb_top(fast)
# Loading work.taxi_ahbl_if(fast)
# Loading work.taxi_ahbl_ram(fast)
# Loading work.test(fast)
# Loading work.sva_checker(fast)
# Loading work.taxi_ahbl_if(fast)
# ** Note: (vsim-8900) Creating design debug database vsim.dbg.
# Sv_Seed = 809329689
# run -all
# [TEST] TESTNAME=FIXED_ADDR TIMEOUT=1000
# [AHB_TRANS]  READ i_hsize=WORD i_htrans=NONSEQ i_haddr=0x4 i_hwdata=0x0
# [AHB_TRANS]  READ i_hsize=WORD i_htrans=NONSEQ i_haddr=0x4 i_hwdata=0x0
# [AHB_TRANS] WRITE i_hsize=WORD i_htrans=NONSEQ i_haddr=0x4 i_hwdata=0xe23602e5
# [AHB_TRANS] WRITE i_hsize=WORD i_htrans=NONSEQ i_haddr=0x4 i_hwdata=0xe00ee19
# [AHB_TRANS]  READ i_hsize=WORD i_htrans=NONSEQ i_haddr=0x4 i_hwdata=0x0
# [AHB_TRANS]  READ i_hsize=WORD i_htrans=NONSEQ i_haddr=0x4 i_hwdata=0x0
# [AHB_TRANS]  READ i_hsize=WORD i_htrans=NONSEQ i_haddr=0x4 i_hwdata=0x0
# [AHB_TRANS] WRITE i_hsize=WORD i_htrans=NONSEQ i_haddr=0x4 i_hwdata=0xabfe75ad
# [AHB_TRANS]  READ i_hsize=WORD i_htrans=NONSEQ i_haddr=0x4 i_hwdata=0x0
# [AHB_TRANS]  READ i_hsize=WORD i_htrans=NONSEQ i_haddr=0x4 i_hwdata=0x0
# [COVER] OKAY COMPLETE observed
# [COVER] OKAY COMPLETE observed
# [COVER] OKAY COMPLETE observed
# [COVER] OKAY COMPLETE observed
# [225000][MON-ADDR] A=0x0 W=0 HSIZE=WORD HTRANS=IDLE
# [PASS] VALID_RESP OK
# [COVER] VALID_RESP observed
# [COVER] OKAY COMPLETE observed
# [COVER] OKAY COMPLETE observed
# [235000][READ][MON-DATA] A=0x0 RDATA=0x0 RESP=0
# [PASS] VALID_RESP OK
# [COVER] VALID_RESP observed
# [COVER] OKAY COMPLETE observed
# [COVER] OKAY COMPLETE observed
# [245000][MON-ADDR] A=0x4 W=0 HSIZE=WORD HTRANS=NONSEQ
# [PASS] VALID_RESP OK
# [COVER] VALID_RESP observed
# [COVER] OKAY COMPLETE observed
# [COVER] OKAY COMPLETE observed
# [255000][READ][MON-DATA] A=0x4 RDATA=0x0 RESP=0
# [255000][SB-PASS ] ADDR=0x00000004 SIZE=WORD EXP=0x00000000 ACT=0x00000000
# [PASS] VALID_RESP OK
# [COVER] VALID_RESP observed
# [COVER] OKAY COMPLETE observed
# [COVER] OKAY COMPLETE observed
# [265000][MON-ADDR] A=0x4 W=0 HSIZE=WORD HTRANS=NONSEQ
# [PASS] VALID_RESP OK
# [COVER] VALID_RESP observed
# [COVER] OKAY COMPLETE observed
# [COVER] OKAY COMPLETE observed
# [275000][READ][MON-DATA] A=0x4 RDATA=0x0 RESP=0
# [275000][SB-PASS ] ADDR=0x00000004 SIZE=WORD EXP=0x00000000 ACT=0x00000000
# [PASS] VALID_RESP OK
# [COVER] VALID_RESP observed
# [COVER] OKAY COMPLETE observed
# [COVER] OKAY COMPLETE observed
# [285000][MON-ADDR] A=0x4 W=0 HSIZE=WORD HTRANS=NONSEQ
# [PASS] VALID_RESP OK
# [COVER] VALID_RESP observed
# [COVER] OKAY COMPLETE observed
# [COVER] OKAY COMPLETE observed
# [295000][READ][MON-DATA] A=0x4 RDATA=0x0 RESP=0
# [295000][SB-PASS ] ADDR=0x00000004 SIZE=WORD EXP=0x00000000 ACT=0x00000000
# [PASS] VALID_RESP OK
# [COVER] VALID_RESP observed
# [COVER] OKAY COMPLETE observed
# [COVER] OKAY COMPLETE observed
# [305000][MON-ADDR] A=0x4 W=1 HSIZE=WORD HTRANS=NONSEQ
# [PASS] VALID_RESP OK
# [COVER] VALID_RESP observed
# [COVER] OKAY COMPLETE observed
# [COVER] OKAY COMPLETE observed
# [315000][WRITE][MON-DATA] A=0x4 WDATA=0xe23602e5 RESP=0
# [315000][SB-WRITE] ADDR=0x00000004 SIZE=WORD DATA=0xe23602e5
# [PASS] VALID_RESP OK
# [COVER] VALID_RESP observed
# [COVER] OKAY COMPLETE observed
# [COVER] OKAY COMPLETE observed
# [325000][MON-ADDR] A=0x4 W=1 HSIZE=WORD HTRANS=NONSEQ
# [PASS] VALID_RESP OK
# [COVER] VALID_RESP observed
# [COVER] OKAY COMPLETE observed
# [COVER] OKAY COMPLETE observed
# [335000][WRITE][MON-DATA] A=0x4 WDATA=0xe00ee19 RESP=0
# [335000][SB-WRITE] ADDR=0x00000004 SIZE=WORD DATA=0x0e00ee19
# [PASS] VALID_RESP OK
# [COVER] VALID_RESP observed
# [COVER] OKAY COMPLETE observed
# [COVER] OKAY COMPLETE observed
# [345000][MON-ADDR] A=0x4 W=1 HSIZE=WORD HTRANS=NONSEQ
# [PASS] VALID_RESP OK
# [COVER] VALID_RESP observed
# [COVER] OKAY COMPLETE observed
# [COVER] OKAY COMPLETE observed
# [355000][WRITE][MON-DATA] A=0x4 WDATA=0xe00ee19 RESP=0
# [355000][SB-WRITE] ADDR=0x00000004 SIZE=WORD DATA=0x0e00ee19
# [PASS] VALID_RESP OK
# [COVER] VALID_RESP observed
# [COVER] OKAY COMPLETE observed
# [COVER] OKAY COMPLETE observed
# [365000][MON-ADDR] A=0x4 W=0 HSIZE=WORD HTRANS=NONSEQ
# [PASS] VALID_RESP OK
# [COVER] VALID_RESP observed
# [COVER] OKAY COMPLETE observed
# [COVER] OKAY COMPLETE observed
# [375000][READ][MON-DATA] A=0x4 RDATA=0xe00ee19 RESP=0
# [375000][SB-PASS ] ADDR=0x00000004 SIZE=WORD EXP=0x0e00ee19 ACT=0x0e00ee19
# [PASS] VALID_RESP OK
# [COVER] VALID_RESP observed
# [COVER] OKAY COMPLETE observed
# [COVER] OKAY COMPLETE observed
# [385000][MON-ADDR] A=0x4 W=0 HSIZE=WORD HTRANS=NONSEQ
# [PASS] VALID_RESP OK
# [COVER] VALID_RESP observed
# [COVER] OKAY COMPLETE observed
# [COVER] OKAY COMPLETE observed
# [395000][READ][MON-DATA] A=0x4 RDATA=0xe00ee19 RESP=0
# [395000][SB-PASS ] ADDR=0x00000004 SIZE=WORD EXP=0x0e00ee19 ACT=0x0e00ee19
# [PASS] VALID_RESP OK
# [COVER] VALID_RESP observed
# [COVER] OKAY COMPLETE observed
# [COVER] OKAY COMPLETE observed
# [405000][MON-ADDR] A=0x4 W=0 HSIZE=WORD HTRANS=NONSEQ
# [PASS] VALID_RESP OK
# [COVER] VALID_RESP observed
# [COVER] OKAY COMPLETE observed
# [COVER] OKAY COMPLETE observed
# [415000][READ][MON-DATA] A=0x4 RDATA=0xe00ee19 RESP=0
# [415000][SB-PASS ] ADDR=0x00000004 SIZE=WORD EXP=0x0e00ee19 ACT=0x0e00ee19
# [PASS] VALID_RESP OK
# [COVER] VALID_RESP observed
# [COVER] OKAY COMPLETE observed
# [COVER] OKAY COMPLETE observed
# [425000][MON-ADDR] A=0x4 W=0 HSIZE=WORD HTRANS=NONSEQ
# [PASS] VALID_RESP OK
# [COVER] VALID_RESP observed
# [COVER] OKAY COMPLETE observed
# [COVER] OKAY COMPLETE observed
# [435000][READ][MON-DATA] A=0x4 RDATA=0xe00ee19 RESP=0
# [435000][SB-PASS ] ADDR=0x00000004 SIZE=WORD EXP=0x0e00ee19 ACT=0x0e00ee19
# [PASS] VALID_RESP OK
# [COVER] VALID_RESP observed
# [COVER] OKAY COMPLETE observed
# [COVER] OKAY COMPLETE observed
# [445000][MON-ADDR] A=0x4 W=1 HSIZE=WORD HTRANS=NONSEQ
# [PASS] VALID_RESP OK
# [COVER] VALID_RESP observed
# [COVER] OKAY COMPLETE observed
# [COVER] OKAY COMPLETE observed
# [455000][WRITE][MON-DATA] A=0x4 WDATA=0xabfe75ad RESP=0
# [455000][SB-WRITE] ADDR=0x00000004 SIZE=WORD DATA=0xabfe75ad
# [PASS] VALID_RESP OK
# [COVER] VALID_RESP observed
# [COVER] OKAY COMPLETE observed
# [COVER] OKAY COMPLETE observed
# [465000][MON-ADDR] A=0x4 W=1 HSIZE=WORD HTRANS=NONSEQ
# [PASS] VALID_RESP OK
# [COVER] VALID_RESP observed
# [COVER] OKAY COMPLETE observed
# [COVER] OKAY COMPLETE observed
# [475000][WRITE][MON-DATA] A=0x4 WDATA=0xabfe75ad RESP=0
# [475000][SB-WRITE] ADDR=0x00000004 SIZE=WORD DATA=0xabfe75ad
# [PASS] VALID_RESP OK
# [COVER] VALID_RESP observed
# [COVER] OKAY COMPLETE observed
# [COVER] OKAY COMPLETE observed
# [485000][MON-ADDR] A=0x4 W=0 HSIZE=WORD HTRANS=NONSEQ
# [PASS] VALID_RESP OK
# [COVER] VALID_RESP observed
# [COVER] OKAY COMPLETE observed
# [COVER] OKAY COMPLETE observed
# [495000][READ][MON-DATA] A=0x4 RDATA=0xabfe75ad RESP=0
# [495000][SB-PASS ] ADDR=0x00000004 SIZE=WORD EXP=0xabfe75ad ACT=0xabfe75ad
# [PASS] VALID_RESP OK
# [COVER] VALID_RESP observed
# [COVER] OKAY COMPLETE observed
# [COVER] OKAY COMPLETE observed
# [505000][MON-ADDR] A=0x4 W=0 HSIZE=WORD HTRANS=NONSEQ
# [PASS] VALID_RESP OK
# [COVER] VALID_RESP observed
# [COVER] OKAY COMPLETE observed
# [COVER] OKAY COMPLETE observed
# [515000][READ][MON-DATA] A=0x4 RDATA=0xabfe75ad RESP=0
# [TEST] TIMEOUT reached
# 
# ================ SCOREBOARD SUMMARY ================
#   Transactions : 14
#     Writes     : 5
#     Reads      : 8
#   Errors       : 0
#   Pass Rate    : 100.00%
#   RESULT       : PASS ✅
# ===================================================
# 
# ** Note: $finish    : ./TB/test.sv(111)
#    Time: 515 ns  Iteration: 1  Instance: /ahb_tb_top/t1
# Break in Task std/mailbox::get at C:/questasim64_10.7c/win64/../verilog_src/std/std.sv line 41
#  coverage save -onexit FIXED_ADDR.ucdb
#  quit -sim
# Saving coverage database on exit...
# End time: 23:52:15 on Jul 25,2026, Elapsed time: 0:00:07
# Errors: 0, Warnings: 0
# 
# QuestaSim-64 vlog 10.7c Compiler 2018.08 Aug 18 2018
# Start time: 23:52:15 on Jul 25,2026
# vlog -reportprogress 300 "+cover" ./TB/taxi_ahbl_if.sv ./RTL/taxi_ahbl_ram.sv ./TB/testbench.sv 
# -- Compiling interface taxi_ahbl_if
# -- Compiling module taxi_ahbl_ram
# -- Compiling package ahb_pkg
# -- Compiling package testbench_sv_unit
# -- Importing package ahb_pkg
# -- Importing package testcase_pkg
# -- Compiling package testcase_pkg
# -- Compiling program sva_checker
# -- Compiling program test
# -- Compiling module ahb_tb_top
# 
# Top level modules:
# 	ahb_tb_top
# End time: 23:52:16 on Jul 25,2026, Elapsed time: 0:00:01
# Errors: 0, Warnings: 0
