# vsim -c -coverage -debugDB -sv_seed random -voptargs="+acc" work.ahb_tb_top "+TESTNAME=RAND_ADDR_INRANGE" -onfinish final -do "run -all; coverage save -onexit RAND_ADDR_INRANGE.ucdb; quit -sim;" 
# Start time: 23:52:20 on Jul 25,2026
# ** Note: (vsim-8009) Loading existing optimized design _opt2
# Loading sv_std.std
# Loading work.testcase_pkg(fast)
# Loading work.ahb_pkg(fast)
# Loading work.testbench_sv_unit(fast)
# Loading work.ahb_tb_top(fast)
# Loading work.taxi_ahbl_if(fast)
# Loading work.taxi_ahbl_ram(fast)
# Loading work.test(fast)
# Loading work.sva_checker(fast)
# Loading work.taxi_ahbl_if(fast)
# ** Note: (vsim-8716) Reusing existing debug database vsim.dbg.
# Sv_Seed = 1386025549
# run -all
# [TEST] TESTNAME=RAND_ADDR_INRANGE TIMEOUT=1000
# [AHB_TRANS]  READ i_hsize=WORD i_htrans=NONSEQ i_haddr=0x0 i_hwdata=0x0
# [AHB_TRANS]  READ i_hsize=WORD i_htrans=NONSEQ i_haddr=0x4 i_hwdata=0x0
# [AHB_TRANS]  READ i_hsize=WORD i_htrans=NONSEQ i_haddr=0x8 i_hwdata=0x0
# [AHB_TRANS] WRITE i_hsize=WORD i_htrans=NONSEQ i_haddr=0x20 i_hwdata=0xa02d1f3b
# [AHB_TRANS] WRITE i_hsize=WORD i_htrans=NONSEQ i_haddr=0x8 i_hwdata=0xf17a7b22
# [AHB_TRANS] WRITE i_hsize=WORD i_htrans=NONSEQ i_haddr=0x8 i_hwdata=0xa0eab754
# [AHB_TRANS] WRITE i_hsize=WORD i_htrans=NONSEQ i_haddr=0x0 i_hwdata=0xb6f7a461
# [AHB_TRANS] WRITE i_hsize=WORD i_htrans=NONSEQ i_haddr=0x8 i_hwdata=0x39ce4226
# [AHB_TRANS] WRITE i_hsize=WORD i_htrans=NONSEQ i_haddr=0x8 i_hwdata=0x4727c31d
# [AHB_TRANS] WRITE i_hsize=WORD i_htrans=NONSEQ i_haddr=0x4 i_hwdata=0x907eca84
# [AHB_TRANS] WRITE i_hsize=WORD i_htrans=NONSEQ i_haddr=0x20 i_hwdata=0x2cbbf155
# [AHB_TRANS] WRITE i_hsize=WORD i_htrans=NONSEQ i_haddr=0x0 i_hwdata=0x88713462
# [AHB_TRANS]  READ i_hsize=WORD i_htrans=NONSEQ i_haddr=0x4 i_hwdata=0x0
# [AHB_TRANS]  READ i_hsize=WORD i_htrans=NONSEQ i_haddr=0x20 i_hwdata=0x0
# [AHB_TRANS]  READ i_hsize=WORD i_htrans=NONSEQ i_haddr=0x20 i_hwdata=0x0
# [AHB_TRANS]  READ i_hsize=WORD i_htrans=NONSEQ i_haddr=0x4 i_hwdata=0x0
# [AHB_TRANS] WRITE i_hsize=WORD i_htrans=NONSEQ i_haddr=0x20 i_hwdata=0xd2093454
# [AHB_TRANS]  READ i_hsize=WORD i_htrans=NONSEQ i_haddr=0x8 i_hwdata=0x0
# [AHB_TRANS] WRITE i_hsize=WORD i_htrans=NONSEQ i_haddr=0x20 i_hwdata=0x48291de7
# [AHB_TRANS] WRITE i_hsize=WORD i_htrans=NONSEQ i_haddr=0x20 i_hwdata=0xc638d9dc
# [AHB_TRANS]  READ i_hsize=WORD i_htrans=NONSEQ i_haddr=0x0 i_hwdata=0x0
# [AHB_TRANS] WRITE i_hsize=WORD i_htrans=NONSEQ i_haddr=0x0 i_hwdata=0xb3b4e776
# [AHB_TRANS] WRITE i_hsize=WORD i_htrans=NONSEQ i_haddr=0x0 i_hwdata=0xb829f70c
# [AHB_TRANS] WRITE i_hsize=WORD i_htrans=NONSEQ i_haddr=0x0 i_hwdata=0x7b62c773
# [AHB_TRANS] WRITE i_hsize=WORD i_htrans=NONSEQ i_haddr=0x0 i_hwdata=0xd1a742b3
# [AHB_TRANS] WRITE i_hsize=WORD i_htrans=NONSEQ i_haddr=0x4 i_hwdata=0xe6c29f0f
# [AHB_TRANS] WRITE i_hsize=WORD i_htrans=NONSEQ i_haddr=0x20 i_hwdata=0x4432880f
# [AHB_TRANS] WRITE i_hsize=WORD i_htrans=NONSEQ i_haddr=0x4 i_hwdata=0x203256bd
# [AHB_TRANS] WRITE i_hsize=WORD i_htrans=NONSEQ i_haddr=0x0 i_hwdata=0xf0a7db2a
# [AHB_TRANS] WRITE i_hsize=WORD i_htrans=NONSEQ i_haddr=0x0 i_hwdata=0x47492674
# [COVER] OKAY COMPLETE observed
# [COVER] OKAY COMPLETE observed
# [COVER] OKAY COMPLETE observed
# [COVER] OKAY COMPLETE observed
# [225000][MON-ADDR] A=0x0 W=0 HSIZE=WORD HTRANS=IDLE
# [PASS] VALID_RESP OK
# [COVER] VALID_RESP observed
# [COVER] OKAY COMPLETE observed
# [COVER] OKAY COMPLETE observed
# [235000][READ][MON-DATA] A=0x0 RDATA=0x0 RESP=0
# [PASS] VALID_RESP OK
# [COVER] VALID_RESP observed
# [COVER] OKAY COMPLETE observed
# [COVER] OKAY COMPLETE observed
# [245000][MON-ADDR] A=0x0 W=0 HSIZE=WORD HTRANS=NONSEQ
# [PASS] VALID_RESP OK
# [COVER] VALID_RESP observed
# [COVER] OKAY COMPLETE observed
# [COVER] OKAY COMPLETE observed
# [255000][READ][MON-DATA] A=0x0 RDATA=0x0 RESP=0
# [255000][SB-PASS ] ADDR=0x00000000 SIZE=WORD EXP=0x00000000 ACT=0x00000000
# [PASS] VALID_RESP OK
# [COVER] VALID_RESP observed
# [COVER] OKAY COMPLETE observed
# [COVER] OKAY COMPLETE observed
# [265000][MON-ADDR] A=0x4 W=0 HSIZE=WORD HTRANS=NONSEQ
# [PASS] VALID_RESP OK
# [COVER] VALID_RESP observed
# [COVER] OKAY COMPLETE observed
# [COVER] OKAY COMPLETE observed
# [275000][READ][MON-DATA] A=0x4 RDATA=0x0 RESP=0
# [275000][SB-PASS ] ADDR=0x00000004 SIZE=WORD EXP=0x00000000 ACT=0x00000000
# [PASS] VALID_RESP OK
# [COVER] VALID_RESP observed
# [COVER] OKAY COMPLETE observed
# [COVER] OKAY COMPLETE observed
# [285000][MON-ADDR] A=0x4 W=0 HSIZE=WORD HTRANS=NONSEQ
# [PASS] VALID_RESP OK
# [COVER] VALID_RESP observed
# [COVER] OKAY COMPLETE observed
# [COVER] OKAY COMPLETE observed
# [295000][READ][MON-DATA] A=0x4 RDATA=0x0 RESP=0
# [295000][SB-PASS ] ADDR=0x00000004 SIZE=WORD EXP=0x00000000 ACT=0x00000000
# [PASS] VALID_RESP OK
# [COVER] VALID_RESP observed
# [COVER] OKAY COMPLETE observed
# [COVER] OKAY COMPLETE observed
# [305000][MON-ADDR] A=0x8 W=0 HSIZE=WORD HTRANS=NONSEQ
# [PASS] VALID_RESP OK
# [COVER] VALID_RESP observed
# [COVER] OKAY COMPLETE observed
# [COVER] OKAY COMPLETE observed
# [315000][READ][MON-DATA] A=0x8 RDATA=0x0 RESP=0
# [315000][SB-PASS ] ADDR=0x00000008 SIZE=WORD EXP=0x00000000 ACT=0x00000000
# [PASS] VALID_RESP OK
# [COVER] VALID_RESP observed
# [COVER] OKAY COMPLETE observed
# [COVER] OKAY COMPLETE observed
# [325000][MON-ADDR] A=0x20 W=1 HSIZE=WORD HTRANS=NONSEQ
# [PASS] VALID_RESP OK
# [COVER] VALID_RESP observed
# [COVER] OKAY COMPLETE observed
# [COVER] OKAY COMPLETE observed
# [335000][WRITE][MON-DATA] A=0x20 WDATA=0xa02d1f3b RESP=0
# [335000][SB-WRITE] ADDR=0x00000020 SIZE=WORD DATA=0xa02d1f3b
# [PASS] VALID_RESP OK
# [COVER] VALID_RESP observed
# [COVER] OKAY COMPLETE observed
# [COVER] OKAY COMPLETE observed
# [345000][MON-ADDR] A=0x20 W=1 HSIZE=WORD HTRANS=NONSEQ
# [PASS] VALID_RESP OK
# [COVER] VALID_RESP observed
# [COVER] OKAY COMPLETE observed
# [COVER] OKAY COMPLETE observed
# [355000][WRITE][MON-DATA] A=0x20 WDATA=0xa02d1f3b RESP=0
# [355000][SB-WRITE] ADDR=0x00000020 SIZE=WORD DATA=0xa02d1f3b
# [PASS] VALID_RESP OK
# [COVER] VALID_RESP observed
# [COVER] OKAY COMPLETE observed
# [COVER] OKAY COMPLETE observed
# [365000][MON-ADDR] A=0x8 W=1 HSIZE=WORD HTRANS=NONSEQ
# [PASS] VALID_RESP OK
# [COVER] VALID_RESP observed
# [COVER] OKAY COMPLETE observed
# [COVER] OKAY COMPLETE observed
# [375000][WRITE][MON-DATA] A=0x8 WDATA=0xf17a7b22 RESP=0
# [375000][SB-WRITE] ADDR=0x00000008 SIZE=WORD DATA=0xf17a7b22
# [PASS] VALID_RESP OK
# [COVER] VALID_RESP observed
# [COVER] OKAY COMPLETE observed
# [COVER] OKAY COMPLETE observed
# [385000][MON-ADDR] A=0x8 W=1 HSIZE=WORD HTRANS=NONSEQ
# [PASS] VALID_RESP OK
# [COVER] VALID_RESP observed
# [COVER] OKAY COMPLETE observed
# [COVER] OKAY COMPLETE observed
# [395000][WRITE][MON-DATA] A=0x8 WDATA=0xa0eab754 RESP=0
# [395000][SB-WRITE] ADDR=0x00000008 SIZE=WORD DATA=0xa0eab754
# [PASS] VALID_RESP OK
# [COVER] VALID_RESP observed
# [COVER] OKAY COMPLETE observed
# [COVER] OKAY COMPLETE observed
# [405000][MON-ADDR] A=0x8 W=1 HSIZE=WORD HTRANS=NONSEQ
# [PASS] VALID_RESP OK
# [COVER] VALID_RESP observed
# [COVER] OKAY COMPLETE observed
# [COVER] OKAY COMPLETE observed
# [415000][WRITE][MON-DATA] A=0x8 WDATA=0xa0eab754 RESP=0
# [415000][SB-WRITE] ADDR=0x00000008 SIZE=WORD DATA=0xa0eab754
# [PASS] VALID_RESP OK
# [COVER] VALID_RESP observed
# [COVER] OKAY COMPLETE observed
# [COVER] OKAY COMPLETE observed
# [425000][MON-ADDR] A=0x0 W=1 HSIZE=WORD HTRANS=NONSEQ
# [PASS] VALID_RESP OK
# [COVER] VALID_RESP observed
# [COVER] OKAY COMPLETE observed
# [COVER] OKAY COMPLETE observed
# [435000][WRITE][MON-DATA] A=0x0 WDATA=0xb6f7a461 RESP=0
# [435000][SB-WRITE] ADDR=0x00000000 SIZE=WORD DATA=0xb6f7a461
# [PASS] VALID_RESP OK
# [COVER] VALID_RESP observed
# [COVER] OKAY COMPLETE observed
# [COVER] OKAY COMPLETE observed
# [445000][MON-ADDR] A=0x8 W=1 HSIZE=WORD HTRANS=NONSEQ
# [PASS] VALID_RESP OK
# [COVER] VALID_RESP observed
# [COVER] OKAY COMPLETE observed
# [COVER] OKAY COMPLETE observed
# [455000][WRITE][MON-DATA] A=0x8 WDATA=0x39ce4226 RESP=0
# [455000][SB-WRITE] ADDR=0x00000008 SIZE=WORD DATA=0x39ce4226
# [PASS] VALID_RESP OK
# [COVER] VALID_RESP observed
# [COVER] OKAY COMPLETE observed
# [COVER] OKAY COMPLETE observed
# [465000][MON-ADDR] A=0x8 W=1 HSIZE=WORD HTRANS=NONSEQ
# [PASS] VALID_RESP OK
# [COVER] VALID_RESP observed
# [COVER] OKAY COMPLETE observed
# [COVER] OKAY COMPLETE observed
# [475000][WRITE][MON-DATA] A=0x8 WDATA=0x39ce4226 RESP=0
# [475000][SB-WRITE] ADDR=0x00000008 SIZE=WORD DATA=0x39ce4226
# [PASS] VALID_RESP OK
# [COVER] VALID_RESP observed
# [COVER] OKAY COMPLETE observed
# [COVER] OKAY COMPLETE observed
# [485000][MON-ADDR] A=0x8 W=1 HSIZE=WORD HTRANS=NONSEQ
# [PASS] VALID_RESP OK
# [COVER] VALID_RESP observed
# [COVER] OKAY COMPLETE observed
# [COVER] OKAY COMPLETE observed
# [495000][WRITE][MON-DATA] A=0x8 WDATA=0x4727c31d RESP=0
# [495000][SB-WRITE] ADDR=0x00000008 SIZE=WORD DATA=0x4727c31d
# [PASS] VALID_RESP OK
# [COVER] VALID_RESP observed
# [COVER] OKAY COMPLETE observed
# [COVER] OKAY COMPLETE observed
# [505000][MON-ADDR] A=0x4 W=1 HSIZE=WORD HTRANS=NONSEQ
# [PASS] VALID_RESP OK
# [COVER] VALID_RESP observed
# [COVER] OKAY COMPLETE observed
# [COVER] OKAY COMPLETE observed
# [515000][WRITE][MON-DATA] A=0x4 WDATA=0x907eca84 RESP=0
# [515000][SB-WRITE] ADDR=0x00000004 SIZE=WORD DATA=0x907eca84
# [PASS] VALID_RESP OK
# [COVER] VALID_RESP observed
# [COVER] OKAY COMPLETE observed
# [COVER] OKAY COMPLETE observed
# [525000][MON-ADDR] A=0x4 W=1 HSIZE=WORD HTRANS=NONSEQ
# [PASS] VALID_RESP OK
# [COVER] VALID_RESP observed
# [COVER] OKAY COMPLETE observed
# [COVER] OKAY COMPLETE observed
# [535000][WRITE][MON-DATA] A=0x4 WDATA=0x907eca84 RESP=0
# [535000][SB-WRITE] ADDR=0x00000004 SIZE=WORD DATA=0x907eca84
# [PASS] VALID_RESP OK
# [COVER] VALID_RESP observed
# [COVER] OKAY COMPLETE observed
# [COVER] OKAY COMPLETE observed
# [545000][MON-ADDR] A=0x20 W=1 HSIZE=WORD HTRANS=NONSEQ
# [PASS] VALID_RESP OK
# [COVER] VALID_RESP observed
# [COVER] OKAY COMPLETE observed
# [COVER] OKAY COMPLETE observed
# [555000][WRITE][MON-DATA] A=0x20 WDATA=0x2cbbf155 RESP=0
# [555000][SB-WRITE] ADDR=0x00000020 SIZE=WORD DATA=0x2cbbf155
# [PASS] VALID_RESP OK
# [COVER] VALID_RESP observed
# [COVER] OKAY COMPLETE observed
# [COVER] OKAY COMPLETE observed
# [565000][MON-ADDR] A=0x0 W=1 HSIZE=WORD HTRANS=NONSEQ
# [PASS] VALID_RESP OK
# [COVER] VALID_RESP observed
# [COVER] OKAY COMPLETE observed
# [COVER] OKAY COMPLETE observed
# [575000][WRITE][MON-DATA] A=0x0 WDATA=0x88713462 RESP=0
# [575000][SB-WRITE] ADDR=0x00000000 SIZE=WORD DATA=0x88713462
# [PASS] VALID_RESP OK
# [COVER] VALID_RESP observed
# [COVER] OKAY COMPLETE observed
# [COVER] OKAY COMPLETE observed
# [585000][MON-ADDR] A=0x0 W=1 HSIZE=WORD HTRANS=NONSEQ
# [PASS] VALID_RESP OK
# [COVER] VALID_RESP observed
# [COVER] OKAY COMPLETE observed
# [COVER] OKAY COMPLETE observed
# [595000][WRITE][MON-DATA] A=0x0 WDATA=0x88713462 RESP=0
# [595000][SB-WRITE] ADDR=0x00000000 SIZE=WORD DATA=0x88713462
# [PASS] VALID_RESP OK
# [COVER] VALID_RESP observed
# [COVER] OKAY COMPLETE observed
# [COVER] OKAY COMPLETE observed
# [605000][MON-ADDR] A=0x4 W=0 HSIZE=WORD HTRANS=NONSEQ
# [PASS] VALID_RESP OK
# [COVER] VALID_RESP observed
# [COVER] OKAY COMPLETE observed
# [COVER] OKAY COMPLETE observed
# [615000][READ][MON-DATA] A=0x4 RDATA=0x3462ca84 RESP=0
# ** Error: [615000][SB-FAIL ] ADDR=0x00000004 SIZE=WORD EXP=0x907eca84 ACT=0x3462ca84
#    Time: 615 ns  Scope: testbench_sv_unit.scoreboard.scoreboard__1.process_one File: ./TB/scoreboard.sv Line: 166
# [PASS] VALID_RESP OK
# [COVER] VALID_RESP observed
# [COVER] OKAY COMPLETE observed
# [COVER] OKAY COMPLETE observed
# [625000][MON-ADDR] A=0x20 W=0 HSIZE=WORD HTRANS=NONSEQ
# [PASS] VALID_RESP OK
# [COVER] VALID_RESP observed
# [COVER] OKAY COMPLETE observed
# [COVER] OKAY COMPLETE observed
# [635000][READ][MON-DATA] A=0x20 RDATA=0x2cbbf155 RESP=0
# [635000][SB-PASS ] ADDR=0x00000020 SIZE=WORD EXP=0x2cbbf155 ACT=0x2cbbf155
# [PASS] VALID_RESP OK
# [COVER] VALID_RESP observed
# [COVER] OKAY COMPLETE observed
# [COVER] OKAY COMPLETE observed
# [645000][MON-ADDR] A=0x20 W=0 HSIZE=WORD HTRANS=NONSEQ
# [PASS] VALID_RESP OK
# [COVER] VALID_RESP observed
# [COVER] OKAY COMPLETE observed
# [COVER] OKAY COMPLETE observed
# [655000][READ][MON-DATA] A=0x20 RDATA=0x2cbbf155 RESP=0
# [655000][SB-PASS ] ADDR=0x00000020 SIZE=WORD EXP=0x2cbbf155 ACT=0x2cbbf155
# [PASS] VALID_RESP OK
# [COVER] VALID_RESP observed
# [COVER] OKAY COMPLETE observed
# [COVER] OKAY COMPLETE observed
# [665000][MON-ADDR] A=0x20 W=0 HSIZE=WORD HTRANS=NONSEQ
# [PASS] VALID_RESP OK
# [COVER] VALID_RESP observed
# [COVER] OKAY COMPLETE observed
# [COVER] OKAY COMPLETE observed
# [675000][READ][MON-DATA] A=0x20 RDATA=0x2cbbf155 RESP=0
# [675000][SB-PASS ] ADDR=0x00000020 SIZE=WORD EXP=0x2cbbf155 ACT=0x2cbbf155
# [PASS] VALID_RESP OK
# [COVER] VALID_RESP observed
# [COVER] OKAY COMPLETE observed
# [COVER] OKAY COMPLETE observed
# [685000][MON-ADDR] A=0x4 W=0 HSIZE=WORD HTRANS=NONSEQ
# [PASS] VALID_RESP OK
# [COVER] VALID_RESP observed
# [COVER] OKAY COMPLETE observed
# [COVER] OKAY COMPLETE observed
# [695000][READ][MON-DATA] A=0x4 RDATA=0x3462ca84 RESP=0
# ** Error: [695000][SB-FAIL ] ADDR=0x00000004 SIZE=WORD EXP=0x907eca84 ACT=0x3462ca84
#    Time: 695 ns  Scope: testbench_sv_unit.scoreboard.scoreboard__1.process_one File: ./TB/scoreboard.sv Line: 166
# [PASS] VALID_RESP OK
# [COVER] VALID_RESP observed
# [COVER] OKAY COMPLETE observed
# [COVER] OKAY COMPLETE observed
# [705000][MON-ADDR] A=0x4 W=0 HSIZE=WORD HTRANS=NONSEQ
# [PASS] VALID_RESP OK
# [COVER] VALID_RESP observed
# [COVER] OKAY COMPLETE observed
# [COVER] OKAY COMPLETE observed
# [715000][READ][MON-DATA] A=0x4 RDATA=0x3462ca84 RESP=0
# ** Error: [715000][SB-FAIL ] ADDR=0x00000004 SIZE=WORD EXP=0x907eca84 ACT=0x3462ca84
#    Time: 715 ns  Scope: testbench_sv_unit.scoreboard.scoreboard__1.process_one File: ./TB/scoreboard.sv Line: 166
# [PASS] VALID_RESP OK
# [COVER] VALID_RESP observed
# [COVER] OKAY COMPLETE observed
# [COVER] OKAY COMPLETE observed
# [725000][MON-ADDR] A=0x20 W=1 HSIZE=WORD HTRANS=NONSEQ
# [PASS] VALID_RESP OK
# [COVER] VALID_RESP observed
# [COVER] OKAY COMPLETE observed
# [COVER] OKAY COMPLETE observed
# [735000][WRITE][MON-DATA] A=0x20 WDATA=0xd2093454 RESP=0
# [735000][SB-WRITE] ADDR=0x00000020 SIZE=WORD DATA=0xd2093454
# [PASS] VALID_RESP OK
# [COVER] VALID_RESP observed
# [COVER] OKAY COMPLETE observed
# [COVER] OKAY COMPLETE observed
# [745000][MON-ADDR] A=0x8 W=0 HSIZE=WORD HTRANS=NONSEQ
# [PASS] VALID_RESP OK
# [COVER] VALID_RESP observed
# [COVER] OKAY COMPLETE observed
# [COVER] OKAY COMPLETE observed
# [755000][READ][MON-DATA] A=0x8 RDATA=0xca84c31d RESP=0
# ** Error: [755000][SB-FAIL ] ADDR=0x00000008 SIZE=WORD EXP=0x4727c31d ACT=0xca84c31d
#    Time: 755 ns  Scope: testbench_sv_unit.scoreboard.scoreboard__1.process_one File: ./TB/scoreboard.sv Line: 166
# [PASS] VALID_RESP OK
# [COVER] VALID_RESP observed
# [COVER] OKAY COMPLETE observed
# [COVER] OKAY COMPLETE observed
# [765000][MON-ADDR] A=0x8 W=0 HSIZE=WORD HTRANS=NONSEQ
# [PASS] VALID_RESP OK
# [COVER] VALID_RESP observed
# [COVER] OKAY COMPLETE observed
# [COVER] OKAY COMPLETE observed
# [775000][READ][MON-DATA] A=0x8 RDATA=0xca84c31d RESP=0
# ** Error: [775000][SB-FAIL ] ADDR=0x00000008 SIZE=WORD EXP=0x4727c31d ACT=0xca84c31d
#    Time: 775 ns  Scope: testbench_sv_unit.scoreboard.scoreboard__1.process_one File: ./TB/scoreboard.sv Line: 166
# [PASS] VALID_RESP OK
# [COVER] VALID_RESP observed
# [COVER] OKAY COMPLETE observed
# [COVER] OKAY COMPLETE observed
# [785000][MON-ADDR] A=0x20 W=1 HSIZE=WORD HTRANS=NONSEQ
# [PASS] VALID_RESP OK
# [COVER] VALID_RESP observed
# [COVER] OKAY COMPLETE observed
# [COVER] OKAY COMPLETE observed
# [795000][WRITE][MON-DATA] A=0x20 WDATA=0x48291de7 RESP=0
# [795000][SB-WRITE] ADDR=0x00000020 SIZE=WORD DATA=0x48291de7
# [PASS] VALID_RESP OK
# [COVER] VALID_RESP observed
# [COVER] OKAY COMPLETE observed
# [COVER] OKAY COMPLETE observed
# [805000][MON-ADDR] A=0x20 W=1 HSIZE=WORD HTRANS=NONSEQ
# [PASS] VALID_RESP OK
# [COVER] VALID_RESP observed
# [COVER] OKAY COMPLETE observed
# [COVER] OKAY COMPLETE observed
# [815000][WRITE][MON-DATA] A=0x20 WDATA=0xc638d9dc RESP=0
# [815000][SB-WRITE] ADDR=0x00000020 SIZE=WORD DATA=0xc638d9dc
# [PASS] VALID_RESP OK
# [COVER] VALID_RESP observed
# [COVER] OKAY COMPLETE observed
# [COVER] OKAY COMPLETE observed
# [825000][MON-ADDR] A=0x20 W=1 HSIZE=WORD HTRANS=NONSEQ
# [PASS] VALID_RESP OK
# [COVER] VALID_RESP observed
# [COVER] OKAY COMPLETE observed
# [COVER] OKAY COMPLETE observed
# [835000][WRITE][MON-DATA] A=0x20 WDATA=0xc638d9dc RESP=0
# [835000][SB-WRITE] ADDR=0x00000020 SIZE=WORD DATA=0xc638d9dc
# [PASS] VALID_RESP OK
# [COVER] VALID_RESP observed
# [COVER] OKAY COMPLETE observed
# [COVER] OKAY COMPLETE observed
# [845000][MON-ADDR] A=0x0 W=0 HSIZE=WORD HTRANS=NONSEQ
# [PASS] VALID_RESP OK
# [COVER] VALID_RESP observed
# [COVER] OKAY COMPLETE observed
# [COVER] OKAY COMPLETE observed
# [855000][READ][MON-DATA] A=0x0 RDATA=0x88713462 RESP=0
# [855000][SB-PASS ] ADDR=0x00000000 SIZE=WORD EXP=0x88713462 ACT=0x88713462
# [PASS] VALID_RESP OK
# [COVER] VALID_RESP observed
# [COVER] OKAY COMPLETE observed
# [COVER] OKAY COMPLETE observed
# [865000][MON-ADDR] A=0x0 W=1 HSIZE=WORD HTRANS=NONSEQ
# [PASS] VALID_RESP OK
# [COVER] VALID_RESP observed
# [COVER] OKAY COMPLETE observed
# [COVER] OKAY COMPLETE observed
# [875000][WRITE][MON-DATA] A=0x0 WDATA=0xb3b4e776 RESP=0
# [875000][SB-WRITE] ADDR=0x00000000 SIZE=WORD DATA=0xb3b4e776
# [PASS] VALID_RESP OK
# [COVER] VALID_RESP observed
# [COVER] OKAY COMPLETE observed
# [COVER] OKAY COMPLETE observed
# [885000][MON-ADDR] A=0x0 W=1 HSIZE=WORD HTRANS=NONSEQ
# [PASS] VALID_RESP OK
# [COVER] VALID_RESP observed
# [COVER] OKAY COMPLETE observed
# [COVER] OKAY COMPLETE observed
# [895000][WRITE][MON-DATA] A=0x0 WDATA=0xb3b4e776 RESP=0
# [895000][SB-WRITE] ADDR=0x00000000 SIZE=WORD DATA=0xb3b4e776
# [PASS] VALID_RESP OK
# [COVER] VALID_RESP observed
# [COVER] OKAY COMPLETE observed
# [COVER] OKAY COMPLETE observed
# [905000][MON-ADDR] A=0x0 W=1 HSIZE=WORD HTRANS=NONSEQ
# [PASS] VALID_RESP OK
# [COVER] VALID_RESP observed
# [COVER] OKAY COMPLETE observed
# [COVER] OKAY COMPLETE observed
# [915000][WRITE][MON-DATA] A=0x0 WDATA=0xb829f70c RESP=0
# [TEST] TIMEOUT reached
# 
# ================ SCOREBOARD SUMMARY ================
#   Transactions : 34
#     Writes     : 20
#     Reads      : 13
#   Errors       : 5
#   Pass Rate    : 85.29%
#   RESULT       : FAIL ❌
# ===================================================
# 
# ** Note: $finish    : ./TB/test.sv(111)
#    Time: 915 ns  Iteration: 1  Instance: /ahb_tb_top/t1
# Break in Task std/mailbox::get at C:/questasim64_10.7c/win64/../verilog_src/std/std.sv line 41
#  coverage save -onexit RAND_ADDR_INRANGE.ucdb
#  quit -sim
# Saving coverage database on exit...
# End time: 23:52:25 on Jul 25,2026, Elapsed time: 0:00:05
# Errors: 5, Warnings: 0
# 
# QuestaSim-64 vlog 10.7c Compiler 2018.08 Aug 18 2018
# Start time: 23:52:25 on Jul 25,2026
# vlog -reportprogress 300 "+cover" ./TB/taxi_ahbl_if.sv ./RTL/taxi_ahbl_ram.sv ./TB/testbench.sv 
# -- Compiling interface taxi_ahbl_if
# -- Compiling module taxi_ahbl_ram
# -- Compiling package ahb_pkg
# -- Compiling package testbench_sv_unit
# -- Importing package ahb_pkg
# -- Importing package testcase_pkg
# -- Compiling package testcase_pkg
# -- Compiling program sva_checker
# -- Compiling program test
# -- Compiling module ahb_tb_top
# 
# Top level modules:
# 	ahb_tb_top
# End time: 23:52:25 on Jul 25,2026, Elapsed time: 0:00:00
# Errors: 0, Warnings: 0
