# vsim -c -coverage -debugDB -sv_seed random -voptargs="+acc" work.ahb_tb_top "+TESTNAME=RAND_ADDR" -onfinish final -do "run -all; coverage save -onexit RAND_ADDR.ucdb; quit -sim;" 
# Start time: 23:52:16 on Jul 25,2026
# ** Note: (vsim-8009) Loading existing optimized design _opt2
# Loading sv_std.std
# Loading work.testcase_pkg(fast)
# Loading work.ahb_pkg(fast)
# Loading work.testbench_sv_unit(fast)
# Loading work.ahb_tb_top(fast)
# Loading work.taxi_ahbl_if(fast)
# Loading work.taxi_ahbl_ram(fast)
# Loading work.test(fast)
# Loading work.sva_checker(fast)
# Loading work.taxi_ahbl_if(fast)
# ** Note: (vsim-8716) Reusing existing debug database vsim.dbg.
# Sv_Seed = 1746740529
# run -all
# [TEST] TESTNAME=RAND_ADDR TIMEOUT=1000
# [RAND_ADDR]  READ i_hsize=WORD i_htrans=NONSEQ i_haddr=0xe5 i_hwdata=0x0
# [RAND_ADDR]  READ i_hsize=WORD i_htrans=NONSEQ i_haddr=0x92 i_hwdata=0x0
# [RAND_ADDR]  READ i_hsize=WORD i_htrans=NONSEQ i_haddr=0xd8 i_hwdata=0x0
# [RAND_ADDR]  READ i_hsize=WORD i_htrans=NONSEQ i_haddr=0x20 i_hwdata=0x0
# [RAND_ADDR]  READ i_hsize=WORD i_htrans=NONSEQ i_haddr=0x32 i_hwdata=0x0
# [RAND_ADDR] WRITE i_hsize=WORD i_htrans=NONSEQ i_haddr=0x86 i_hwdata=0xac83ea50
# [RAND_ADDR] WRITE i_hsize=WORD i_htrans=NONSEQ i_haddr=0x88 i_hwdata=0x2fd4338b
# [RAND_ADDR] WRITE i_hsize=WORD i_htrans=NONSEQ i_haddr=0x80 i_hwdata=0x191e1179
# [RAND_ADDR]  READ i_hsize=WORD i_htrans=NONSEQ i_haddr=0x80 i_hwdata=0x0
# [RAND_ADDR]  READ i_hsize=WORD i_htrans=NONSEQ i_haddr=0x0 i_hwdata=0x0
# [RAND_ADDR]  READ i_hsize=WORD i_htrans=NONSEQ i_haddr=0xcd i_hwdata=0x0
# [RAND_ADDR]  READ i_hsize=WORD i_htrans=NONSEQ i_haddr=0x0 i_hwdata=0x0
# [RAND_ADDR]  READ i_hsize=WORD i_htrans=NONSEQ i_haddr=0xb4 i_hwdata=0x0
# [RAND_ADDR] WRITE i_hsize=WORD i_htrans=NONSEQ i_haddr=0xc8 i_hwdata=0x26935fc5
# [RAND_ADDR] WRITE i_hsize=WORD i_htrans=NONSEQ i_haddr=0x4 i_hwdata=0x45a9eb5a
# [RAND_ADDR] WRITE i_hsize=WORD i_htrans=NONSEQ i_haddr=0x8 i_hwdata=0x54430fb8
# [COVER] OKAY COMPLETE observed
# [COVER] OKAY COMPLETE observed
# [COVER] OKAY COMPLETE observed
# [COVER] OKAY COMPLETE observed
# [225000][MON-ADDR] A=0x0 W=0 HSIZE=WORD HTRANS=IDLE
# [PASS] VALID_RESP OK
# [COVER] VALID_RESP observed
# [COVER] OKAY COMPLETE observed
# [COVER] OKAY COMPLETE observed
# [235000][READ][MON-DATA] A=0x0 RDATA=0x0 RESP=0
# [PASS] VALID_RESP OK
# [COVER] VALID_RESP observed
# [COVER] OKAY COMPLETE observed
# [COVER] OKAY COMPLETE observed
# [245000][MON-ADDR] A=0xe5 W=0 HSIZE=WORD HTRANS=NONSEQ
# [PASS] VALID_RESP OK
# [COVER] VALID_RESP observed
# [COVER] OKAY COMPLETE observed
# [COVER] OKAY COMPLETE observed
# [255000][READ][MON-DATA] A=0xe5 RDATA=0x0 RESP=0
# [255000][SB-PASS ] ADDR=0x000000e5 SIZE=WORD EXP=0x00000000 ACT=0x00000000
# [PASS] VALID_RESP OK
# [COVER] VALID_RESP observed
# [COVER] OKAY COMPLETE observed
# [COVER] OKAY COMPLETE observed
# [265000][MON-ADDR] A=0x92 W=0 HSIZE=WORD HTRANS=NONSEQ
# [PASS] VALID_RESP OK
# [COVER] VALID_RESP observed
# [COVER] OKAY COMPLETE observed
# [COVER] OKAY COMPLETE observed
# [275000][READ][MON-DATA] A=0x92 RDATA=0x0 RESP=0
# [275000][SB-PASS ] ADDR=0x00000092 SIZE=WORD EXP=0x00000000 ACT=0x00000000
# [PASS] VALID_RESP OK
# [COVER] VALID_RESP observed
# [COVER] OKAY COMPLETE observed
# [COVER] OKAY COMPLETE observed
# [285000][MON-ADDR] A=0x92 W=0 HSIZE=WORD HTRANS=NONSEQ
# [PASS] VALID_RESP OK
# [COVER] VALID_RESP observed
# [COVER] OKAY COMPLETE observed
# [COVER] OKAY COMPLETE observed
# [295000][READ][MON-DATA] A=0x92 RDATA=0x0 RESP=0
# [295000][SB-PASS ] ADDR=0x00000092 SIZE=WORD EXP=0x00000000 ACT=0x00000000
# [PASS] VALID_RESP OK
# [COVER] VALID_RESP observed
# [COVER] OKAY COMPLETE observed
# [COVER] OKAY COMPLETE observed
# [305000][MON-ADDR] A=0xd8 W=0 HSIZE=WORD HTRANS=NONSEQ
# [PASS] VALID_RESP OK
# [COVER] VALID_RESP observed
# [COVER] OKAY COMPLETE observed
# [COVER] OKAY COMPLETE observed
# [315000][READ][MON-DATA] A=0xd8 RDATA=0x0 RESP=0
# [315000][SB-PASS ] ADDR=0x000000d8 SIZE=WORD EXP=0x00000000 ACT=0x00000000
# [PASS] VALID_RESP OK
# [COVER] VALID_RESP observed
# [COVER] OKAY COMPLETE observed
# [COVER] OKAY COMPLETE observed
# [325000][MON-ADDR] A=0x20 W=0 HSIZE=WORD HTRANS=NONSEQ
# [PASS] VALID_RESP OK
# [COVER] VALID_RESP observed
# [COVER] OKAY COMPLETE observed
# [COVER] OKAY COMPLETE observed
# [335000][READ][MON-DATA] A=0x20 RDATA=0x0 RESP=0
# [335000][SB-PASS ] ADDR=0x00000020 SIZE=WORD EXP=0x00000000 ACT=0x00000000
# [PASS] VALID_RESP OK
# [COVER] VALID_RESP observed
# [COVER] OKAY COMPLETE observed
# [COVER] OKAY COMPLETE observed
# [345000][MON-ADDR] A=0x20 W=0 HSIZE=WORD HTRANS=NONSEQ
# [PASS] VALID_RESP OK
# [COVER] VALID_RESP observed
# [COVER] OKAY COMPLETE observed
# [COVER] OKAY COMPLETE observed
# [355000][READ][MON-DATA] A=0x20 RDATA=0x0 RESP=0
# [355000][SB-PASS ] ADDR=0x00000020 SIZE=WORD EXP=0x00000000 ACT=0x00000000
# [PASS] VALID_RESP OK
# [COVER] VALID_RESP observed
# [COVER] OKAY COMPLETE observed
# [COVER] OKAY COMPLETE observed
# [365000][MON-ADDR] A=0x32 W=0 HSIZE=WORD HTRANS=NONSEQ
# [PASS] VALID_RESP OK
# [COVER] VALID_RESP observed
# [COVER] OKAY COMPLETE observed
# [COVER] OKAY COMPLETE observed
# [375000][READ][MON-DATA] A=0x32 RDATA=0x0 RESP=0
# [375000][SB-PASS ] ADDR=0x00000032 SIZE=WORD EXP=0x00000000 ACT=0x00000000
# [PASS] VALID_RESP OK
# [COVER] VALID_RESP observed
# [COVER] OKAY COMPLETE observed
# [COVER] OKAY COMPLETE observed
# [385000][MON-ADDR] A=0x86 W=1 HSIZE=WORD HTRANS=NONSEQ
# [PASS] VALID_RESP OK
# [COVER] VALID_RESP observed
# [COVER] OKAY COMPLETE observed
# [COVER] OKAY COMPLETE observed
# [395000][WRITE][MON-DATA] A=0x86 WDATA=0xac83ea50 RESP=0
# [395000][SB-WRITE] ADDR=0x00000086 SIZE=WORD DATA=0xac83ea50
# [PASS] VALID_RESP OK
# [COVER] VALID_RESP observed
# [COVER] OKAY COMPLETE observed
# [COVER] OKAY COMPLETE observed
# [405000][MON-ADDR] A=0x86 W=1 HSIZE=WORD HTRANS=NONSEQ
# [PASS] VALID_RESP OK
# [COVER] VALID_RESP observed
# [COVER] OKAY COMPLETE observed
# [COVER] OKAY COMPLETE observed
# [415000][WRITE][MON-DATA] A=0x86 WDATA=0xac83ea50 RESP=0
# [415000][SB-WRITE] ADDR=0x00000086 SIZE=WORD DATA=0xac83ea50
# [PASS] VALID_RESP OK
# [COVER] VALID_RESP observed
# [COVER] OKAY COMPLETE observed
# [COVER] OKAY COMPLETE observed
# [425000][MON-ADDR] A=0x88 W=1 HSIZE=WORD HTRANS=NONSEQ
# [PASS] VALID_RESP OK
# [COVER] VALID_RESP observed
# [COVER] OKAY COMPLETE observed
# [COVER] OKAY COMPLETE observed
# [435000][WRITE][MON-DATA] A=0x88 WDATA=0x2fd4338b RESP=0
# [435000][SB-WRITE] ADDR=0x00000088 SIZE=WORD DATA=0x2fd4338b
# [PASS] VALID_RESP OK
# [COVER] VALID_RESP observed
# [COVER] OKAY COMPLETE observed
# [COVER] OKAY COMPLETE observed
# [445000][MON-ADDR] A=0x80 W=1 HSIZE=WORD HTRANS=NONSEQ
# [PASS] VALID_RESP OK
# [COVER] VALID_RESP observed
# [COVER] OKAY COMPLETE observed
# [COVER] OKAY COMPLETE observed
# [455000][WRITE][MON-DATA] A=0x80 WDATA=0x191e1179 RESP=0
# [455000][SB-WRITE] ADDR=0x00000080 SIZE=WORD DATA=0x191e1179
# [PASS] VALID_RESP OK
# [COVER] VALID_RESP observed
# [COVER] OKAY COMPLETE observed
# [COVER] OKAY COMPLETE observed
# [465000][MON-ADDR] A=0x80 W=1 HSIZE=WORD HTRANS=NONSEQ
# [PASS] VALID_RESP OK
# [COVER] VALID_RESP observed
# [COVER] OKAY COMPLETE observed
# [COVER] OKAY COMPLETE observed
# [475000][WRITE][MON-DATA] A=0x80 WDATA=0x191e1179 RESP=0
# [475000][SB-WRITE] ADDR=0x00000080 SIZE=WORD DATA=0x191e1179
# [PASS] VALID_RESP OK
# [COVER] VALID_RESP observed
# [COVER] OKAY COMPLETE observed
# [COVER] OKAY COMPLETE observed
# [485000][MON-ADDR] A=0x80 W=0 HSIZE=WORD HTRANS=NONSEQ
# [PASS] VALID_RESP OK
# [COVER] VALID_RESP observed
# [COVER] OKAY COMPLETE observed
# [COVER] OKAY COMPLETE observed
# [495000][READ][MON-DATA] A=0x80 RDATA=0x191e1179 RESP=0
# [495000][SB-PASS ] ADDR=0x00000080 SIZE=WORD EXP=0x191e1179 ACT=0x191e1179
# [PASS] VALID_RESP OK
# [COVER] VALID_RESP observed
# [COVER] OKAY COMPLETE observed
# [COVER] OKAY COMPLETE observed
# [505000][MON-ADDR] A=0x0 W=0 HSIZE=WORD HTRANS=NONSEQ
# [PASS] VALID_RESP OK
# [COVER] VALID_RESP observed
# [COVER] OKAY COMPLETE observed
# [COVER] OKAY COMPLETE observed
# [515000][READ][MON-DATA] A=0x0 RDATA=0x0 RESP=0
# [515000][SB-PASS ] ADDR=0x00000000 SIZE=WORD EXP=0x00000000 ACT=0x00000000
# [PASS] VALID_RESP OK
# [COVER] VALID_RESP observed
# [COVER] OKAY COMPLETE observed
# [COVER] OKAY COMPLETE observed
# [525000][MON-ADDR] A=0x0 W=0 HSIZE=WORD HTRANS=NONSEQ
# [PASS] VALID_RESP OK
# [COVER] VALID_RESP observed
# [COVER] OKAY COMPLETE observed
# [COVER] OKAY COMPLETE observed
# [535000][READ][MON-DATA] A=0x0 RDATA=0x0 RESP=0
# [535000][SB-PASS ] ADDR=0x00000000 SIZE=WORD EXP=0x00000000 ACT=0x00000000
# [PASS] VALID_RESP OK
# [COVER] VALID_RESP observed
# [COVER] OKAY COMPLETE observed
# [COVER] OKAY COMPLETE observed
# [545000][MON-ADDR] A=0xcd W=0 HSIZE=WORD HTRANS=NONSEQ
# [PASS] VALID_RESP OK
# [COVER] VALID_RESP observed
# [COVER] OKAY COMPLETE observed
# [COVER] OKAY COMPLETE observed
# [555000][READ][MON-DATA] A=0xcd RDATA=0x0 RESP=0
# [555000][SB-PASS ] ADDR=0x000000cd SIZE=WORD EXP=0x00000000 ACT=0x00000000
# [PASS] VALID_RESP OK
# [COVER] VALID_RESP observed
# [COVER] OKAY COMPLETE observed
# [COVER] OKAY COMPLETE observed
# [565000][MON-ADDR] A=0x0 W=0 HSIZE=WORD HTRANS=NONSEQ
# [PASS] VALID_RESP OK
# [COVER] VALID_RESP observed
# [COVER] OKAY COMPLETE observed
# [COVER] OKAY COMPLETE observed
# [575000][READ][MON-DATA] A=0x0 RDATA=0x0 RESP=0
# [575000][SB-PASS ] ADDR=0x00000000 SIZE=WORD EXP=0x00000000 ACT=0x00000000
# [PASS] VALID_RESP OK
# [COVER] VALID_RESP observed
# [COVER] OKAY COMPLETE observed
# [COVER] OKAY COMPLETE observed
# [585000][MON-ADDR] A=0x0 W=0 HSIZE=WORD HTRANS=NONSEQ
# [PASS] VALID_RESP OK
# [COVER] VALID_RESP observed
# [COVER] OKAY COMPLETE observed
# [COVER] OKAY COMPLETE observed
# [595000][READ][MON-DATA] A=0x0 RDATA=0x0 RESP=0
# [595000][SB-PASS ] ADDR=0x00000000 SIZE=WORD EXP=0x00000000 ACT=0x00000000
# [PASS] VALID_RESP OK
# [COVER] VALID_RESP observed
# [COVER] OKAY COMPLETE observed
# [COVER] OKAY COMPLETE observed
# [605000][MON-ADDR] A=0xb4 W=0 HSIZE=WORD HTRANS=NONSEQ
# [PASS] VALID_RESP OK
# [COVER] VALID_RESP observed
# [COVER] OKAY COMPLETE observed
# [COVER] OKAY COMPLETE observed
# [615000][READ][MON-DATA] A=0xb4 RDATA=0x0 RESP=0
# [615000][SB-PASS ] ADDR=0x000000b4 SIZE=WORD EXP=0x00000000 ACT=0x00000000
# [PASS] VALID_RESP OK
# [COVER] VALID_RESP observed
# [COVER] OKAY COMPLETE observed
# [COVER] OKAY COMPLETE observed
# [625000][MON-ADDR] A=0xc8 W=1 HSIZE=WORD HTRANS=NONSEQ
# [PASS] VALID_RESP OK
# [COVER] VALID_RESP observed
# [COVER] OKAY COMPLETE observed
# [COVER] OKAY COMPLETE observed
# [635000][WRITE][MON-DATA] A=0xc8 WDATA=0x26935fc5 RESP=0
# [TEST] TIMEOUT reached
# 
# ================ SCOREBOARD SUMMARY ================
#   Transactions : 20
#     Writes     : 5
#     Reads      : 14
#   Errors       : 0
#   Pass Rate    : 100.00%
#   RESULT       : PASS ✅
# ===================================================
# 
# ** Note: $finish    : ./TB/test.sv(111)
#    Time: 635 ns  Iteration: 2  Instance: /ahb_tb_top/t1
# Break in Task std/mailbox::get at C:/questasim64_10.7c/win64/../verilog_src/std/std.sv line 41
#  coverage save -onexit RAND_ADDR.ucdb
#  quit -sim
# Saving coverage database on exit...
# End time: 23:52:20 on Jul 25,2026, Elapsed time: 0:00:04
# Errors: 0, Warnings: 0
# 
# QuestaSim-64 vlog 10.7c Compiler 2018.08 Aug 18 2018
# Start time: 23:52:20 on Jul 25,2026
# vlog -reportprogress 300 "+cover" ./TB/taxi_ahbl_if.sv ./RTL/taxi_ahbl_ram.sv ./TB/testbench.sv 
# -- Compiling interface taxi_ahbl_if
# -- Compiling module taxi_ahbl_ram
# -- Compiling package ahb_pkg
# -- Compiling package testbench_sv_unit
# -- Importing package ahb_pkg
# -- Importing package testcase_pkg
# -- Compiling package testcase_pkg
# -- Compiling program sva_checker
# -- Compiling program test
# -- Compiling module ahb_tb_top
# 
# Top level modules:
# 	ahb_tb_top
# End time: 23:52:20 on Jul 25,2026, Elapsed time: 0:00:00
# Errors: 0, Warnings: 0
