# vsim -c -coverage -debugDB -sv_seed random -voptargs="+acc" work.ahb_tb_top "+TESTNAME=RAND_ADDR" -onfinish final -do "run -all; coverage save -onexit RAND_ADDR.ucdb; quit -sim;" 
# Start time: 17:50:13 on Jul 24,2026
# ** Note: (vsim-8009) Loading existing optimized design _opt2
# Loading sv_std.std
# Loading work.testcase_pkg(fast)
# Loading work.ahb_pkg(fast)
# Loading work.testbench_sv_unit(fast)
# Loading work.ahb_tb_top(fast)
# Loading work.taxi_ahbl_if(fast)
# Loading work.taxi_ahbl_ram(fast)
# Loading work.test(fast)
# Loading work.sva_checker(fast)
# Loading work.taxi_ahbl_if(fast)
# ** Note: (vsim-8716) Reusing existing debug database vsim.dbg.
# Sv_Seed = 375932513
# run -all
# [TEST] TESTNAME=RAND_ADDR TIMEOUT=1000
# [RAND_ADDR]  READ i_hsize=WORD i_htrans=NONSEQ i_haddr=0xd0 i_hwdata=0x0
# [RAND_ADDR]  READ i_hsize=WORD i_htrans=NONSEQ i_haddr=0xc i_hwdata=0x0
# [RAND_ADDR]  READ i_hsize=WORD i_htrans=NONSEQ i_haddr=0xd0 i_hwdata=0x0
# [RAND_ADDR]  READ i_hsize=WORD i_htrans=NONSEQ i_haddr=0xec i_hwdata=0x0
# [RAND_ADDR]  READ i_hsize=WORD i_htrans=NONSEQ i_haddr=0x90 i_hwdata=0x0
# [RAND_ADDR]  READ i_hsize=WORD i_htrans=NONSEQ i_haddr=0xe4 i_hwdata=0x0
# [RAND_ADDR]  READ i_hsize=WORD i_htrans=NONSEQ i_haddr=0x3a i_hwdata=0x0
# [RAND_ADDR]  READ i_hsize=WORD i_htrans=NONSEQ i_haddr=0x8 i_hwdata=0x0
# [RAND_ADDR]  READ i_hsize=WORD i_htrans=NONSEQ i_haddr=0xf6 i_hwdata=0x0
# [RAND_ADDR]  READ i_hsize=WORD i_htrans=NONSEQ i_haddr=0xc0 i_hwdata=0x0
# [RAND_ADDR]  READ i_hsize=WORD i_htrans=NONSEQ i_haddr=0x10 i_hwdata=0x0
# [RAND_ADDR]  READ i_hsize=WORD i_htrans=NONSEQ i_haddr=0x80 i_hwdata=0x0
# [RAND_ADDR] WRITE i_hsize=WORD i_htrans=NONSEQ i_haddr=0x28 i_hwdata=0x1931f44d
# [RAND_ADDR] WRITE i_hsize=WORD i_htrans=NONSEQ i_haddr=0x16 i_hwdata=0x363c7544
# [RAND_ADDR]  READ i_hsize=WORD i_htrans=NONSEQ i_haddr=0xd0 i_hwdata=0x0
# [RAND_ADDR] WRITE i_hsize=WORD i_htrans=NONSEQ i_haddr=0x30 i_hwdata=0x9538fa9d
# [COVER] OKAY COMPLETE observed
# [COVER] OKAY COMPLETE observed
# [225000][MON-ADDR] A=0x0 W=0 HSIZE=WORD HTRANS=IDLE
# [PASS] VALID_RESP OK
# [COVER] OKAY COMPLETE observed
# [235000][READ][MON-DATA] A=0x0 RDATA=0x0 RESP=0
# [PASS] VALID_RESP OK
# [COVER] OKAY COMPLETE observed
# [245000][MON-ADDR] A=0xd0 W=0 HSIZE=WORD HTRANS=NONSEQ
# [PASS] VALID_RESP OK
# [COVER] OKAY COMPLETE observed
# [255000][READ][MON-DATA] A=0xd0 RDATA=0x0 RESP=0
# [255000][SB-PASS ] ADDR=0x000000d0 SIZE=WORD EXP=0x00000000 ACT=0x00000000
# [PASS] VALID_RESP OK
# [COVER] OKAY COMPLETE observed
# [265000][MON-ADDR] A=0xc W=0 HSIZE=WORD HTRANS=NONSEQ
# [PASS] VALID_RESP OK
# [COVER] OKAY COMPLETE observed
# [275000][READ][MON-DATA] A=0xc RDATA=0x0 RESP=0
# [275000][SB-PASS ] ADDR=0x0000000c SIZE=WORD EXP=0x00000000 ACT=0x00000000
# [PASS] VALID_RESP OK
# [COVER] OKAY COMPLETE observed
# [285000][MON-ADDR] A=0xc W=0 HSIZE=WORD HTRANS=NONSEQ
# [PASS] VALID_RESP OK
# [COVER] OKAY COMPLETE observed
# [295000][READ][MON-DATA] A=0xc RDATA=0x0 RESP=0
# [295000][SB-PASS ] ADDR=0x0000000c SIZE=WORD EXP=0x00000000 ACT=0x00000000
# [PASS] VALID_RESP OK
# [COVER] OKAY COMPLETE observed
# [305000][MON-ADDR] A=0xd0 W=0 HSIZE=WORD HTRANS=NONSEQ
# [PASS] VALID_RESP OK
# [COVER] OKAY COMPLETE observed
# [315000][READ][MON-DATA] A=0xd0 RDATA=0x0 RESP=0
# [315000][SB-PASS ] ADDR=0x000000d0 SIZE=WORD EXP=0x00000000 ACT=0x00000000
# [PASS] VALID_RESP OK
# [COVER] OKAY COMPLETE observed
# [325000][MON-ADDR] A=0xec W=0 HSIZE=WORD HTRANS=NONSEQ
# [PASS] VALID_RESP OK
# [COVER] OKAY COMPLETE observed
# [335000][READ][MON-DATA] A=0xec RDATA=0x0 RESP=0
# [335000][SB-PASS ] ADDR=0x000000ec SIZE=WORD EXP=0x00000000 ACT=0x00000000
# [PASS] VALID_RESP OK
# [COVER] OKAY COMPLETE observed
# [345000][MON-ADDR] A=0xec W=0 HSIZE=WORD HTRANS=NONSEQ
# [PASS] VALID_RESP OK
# [COVER] OKAY COMPLETE observed
# [355000][READ][MON-DATA] A=0xec RDATA=0x0 RESP=0
# [355000][SB-PASS ] ADDR=0x000000ec SIZE=WORD EXP=0x00000000 ACT=0x00000000
# [PASS] VALID_RESP OK
# [COVER] OKAY COMPLETE observed
# [365000][MON-ADDR] A=0x90 W=0 HSIZE=WORD HTRANS=NONSEQ
# [PASS] VALID_RESP OK
# [COVER] OKAY COMPLETE observed
# [375000][READ][MON-DATA] A=0x90 RDATA=0x0 RESP=0
# [375000][SB-PASS ] ADDR=0x00000090 SIZE=WORD EXP=0x00000000 ACT=0x00000000
# [PASS] VALID_RESP OK
# [COVER] OKAY COMPLETE observed
# [385000][MON-ADDR] A=0xe4 W=0 HSIZE=WORD HTRANS=NONSEQ
# [PASS] VALID_RESP OK
# [COVER] OKAY COMPLETE observed
# [395000][READ][MON-DATA] A=0xe4 RDATA=0x0 RESP=0
# [395000][SB-PASS ] ADDR=0x000000e4 SIZE=WORD EXP=0x00000000 ACT=0x00000000
# [PASS] VALID_RESP OK
# [COVER] OKAY COMPLETE observed
# [405000][MON-ADDR] A=0xe4 W=0 HSIZE=WORD HTRANS=NONSEQ
# [PASS] VALID_RESP OK
# [COVER] OKAY COMPLETE observed
# [415000][READ][MON-DATA] A=0xe4 RDATA=0x0 RESP=0
# [415000][SB-PASS ] ADDR=0x000000e4 SIZE=WORD EXP=0x00000000 ACT=0x00000000
# [PASS] VALID_RESP OK
# [COVER] OKAY COMPLETE observed
# [425000][MON-ADDR] A=0x3a W=0 HSIZE=WORD HTRANS=NONSEQ
# [PASS] VALID_RESP OK
# [COVER] OKAY COMPLETE observed
# [435000][READ][MON-DATA] A=0x3a RDATA=0x0 RESP=0
# [435000][SB-PASS ] ADDR=0x0000003a SIZE=WORD EXP=0x00000000 ACT=0x00000000
# [PASS] VALID_RESP OK
# [COVER] OKAY COMPLETE observed
# [445000][MON-ADDR] A=0x8 W=0 HSIZE=WORD HTRANS=NONSEQ
# [PASS] VALID_RESP OK
# [COVER] OKAY COMPLETE observed
# [455000][READ][MON-DATA] A=0x8 RDATA=0x0 RESP=0
# [455000][SB-PASS ] ADDR=0x00000008 SIZE=WORD EXP=0x00000000 ACT=0x00000000
# [PASS] VALID_RESP OK
# [COVER] OKAY COMPLETE observed
# [465000][MON-ADDR] A=0x8 W=0 HSIZE=WORD HTRANS=NONSEQ
# [PASS] VALID_RESP OK
# [COVER] OKAY COMPLETE observed
# [475000][READ][MON-DATA] A=0x8 RDATA=0x0 RESP=0
# [475000][SB-PASS ] ADDR=0x00000008 SIZE=WORD EXP=0x00000000 ACT=0x00000000
# [PASS] VALID_RESP OK
# [COVER] OKAY COMPLETE observed
# [485000][MON-ADDR] A=0xf6 W=0 HSIZE=WORD HTRANS=NONSEQ
# [PASS] VALID_RESP OK
# [COVER] OKAY COMPLETE observed
# [495000][READ][MON-DATA] A=0xf6 RDATA=0x0 RESP=0
# [495000][SB-PASS ] ADDR=0x000000f6 SIZE=WORD EXP=0x00000000 ACT=0x00000000
# [PASS] VALID_RESP OK
# [COVER] OKAY COMPLETE observed
# [505000][MON-ADDR] A=0xc0 W=0 HSIZE=WORD HTRANS=NONSEQ
# [PASS] VALID_RESP OK
# [COVER] OKAY COMPLETE observed
# [515000][READ][MON-DATA] A=0xc0 RDATA=0x0 RESP=0
# [515000][SB-PASS ] ADDR=0x000000c0 SIZE=WORD EXP=0x00000000 ACT=0x00000000
# [PASS] VALID_RESP OK
# [COVER] OKAY COMPLETE observed
# [525000][MON-ADDR] A=0xc0 W=0 HSIZE=WORD HTRANS=NONSEQ
# [PASS] VALID_RESP OK
# [COVER] OKAY COMPLETE observed
# [535000][READ][MON-DATA] A=0xc0 RDATA=0x0 RESP=0
# [535000][SB-PASS ] ADDR=0x000000c0 SIZE=WORD EXP=0x00000000 ACT=0x00000000
# [PASS] VALID_RESP OK
# [COVER] OKAY COMPLETE observed
# [545000][MON-ADDR] A=0x10 W=0 HSIZE=WORD HTRANS=NONSEQ
# [PASS] VALID_RESP OK
# [COVER] OKAY COMPLETE observed
# [555000][READ][MON-DATA] A=0x10 RDATA=0x0 RESP=0
# [555000][SB-PASS ] ADDR=0x00000010 SIZE=WORD EXP=0x00000000 ACT=0x00000000
# [PASS] VALID_RESP OK
# [COVER] OKAY COMPLETE observed
# [565000][MON-ADDR] A=0x80 W=0 HSIZE=WORD HTRANS=NONSEQ
# [PASS] VALID_RESP OK
# [COVER] OKAY COMPLETE observed
# [575000][READ][MON-DATA] A=0x80 RDATA=0x0 RESP=0
# [575000][SB-PASS ] ADDR=0x00000080 SIZE=WORD EXP=0x00000000 ACT=0x00000000
# [PASS] VALID_RESP OK
# [COVER] OKAY COMPLETE observed
# [585000][MON-ADDR] A=0x80 W=0 HSIZE=WORD HTRANS=NONSEQ
# [PASS] VALID_RESP OK
# [COVER] OKAY COMPLETE observed
# [595000][READ][MON-DATA] A=0x80 RDATA=0x0 RESP=0
# [595000][SB-PASS ] ADDR=0x00000080 SIZE=WORD EXP=0x00000000 ACT=0x00000000
# [PASS] VALID_RESP OK
# [COVER] OKAY COMPLETE observed
# [605000][MON-ADDR] A=0x28 W=1 HSIZE=WORD HTRANS=NONSEQ
# [PASS] VALID_RESP OK
# [COVER] OKAY COMPLETE observed
# [615000][WRITE][MON-DATA] A=0x28 WDATA=0x1931f44d RESP=0
# [615000][SB-WRITE] ADDR=0x00000028 SIZE=WORD DATA=0x1931f44d
# [PASS] VALID_RESP OK
# [COVER] OKAY COMPLETE observed
# [625000][MON-ADDR] A=0x16 W=1 HSIZE=WORD HTRANS=NONSEQ
# [PASS] VALID_RESP OK
# [COVER] OKAY COMPLETE observed
# [635000][WRITE][MON-DATA] A=0x16 WDATA=0x363c7544 RESP=0
# [TEST] TIMEOUT reached
# 
# ================ SCOREBOARD SUMMARY ================
#   Transactions : 20
#     Writes     : 1
#     Reads      : 18
#   Errors       : 0
#   Pass Rate    : 100.00%
#   RESULT       : PASS ✅
# ===================================================
# 
# ** Note: $finish    : ./TB/test.sv(111)
#    Time: 635 ns  Iteration: 2  Instance: /ahb_tb_top/t1
# Break in Task std/mailbox::get at C:/questasim64_10.7c/win64/../verilog_src/std/std.sv line 41
#  coverage save -onexit RAND_ADDR.ucdb
#  quit -sim
# Saving coverage database on exit...
# End time: 17:50:17 on Jul 24,2026, Elapsed time: 0:00:04
# Errors: 0, Warnings: 0
# 
# QuestaSim-64 vlog 10.7c Compiler 2018.08 Aug 18 2018
# Start time: 17:50:17 on Jul 24,2026
# vlog -reportprogress 300 "+cover" ./TB/taxi_ahbl_if.sv ./RTL/taxi_ahbl_ram.sv ./TB/testbench.sv 
# -- Compiling interface taxi_ahbl_if
# -- Compiling module taxi_ahbl_ram
# -- Compiling package ahb_pkg
# -- Compiling package testbench_sv_unit
# -- Importing package ahb_pkg
# -- Importing package testcase_pkg
# -- Compiling package testcase_pkg
# -- Compiling program sva_checker
# -- Compiling program test
# -- Compiling module ahb_tb_top
# 
# Top level modules:
# 	ahb_tb_top
# End time: 17:50:17 on Jul 24,2026, Elapsed time: 0:00:00
# Errors: 0, Warnings: 0
