# vsim -c -coverage -debugDB -sv_seed random -voptargs="+acc" work.ahb_tb_top "+TESTNAME=READ_WAIT_STATE" -onfinish final -do "run -all; quit -sim;" 
# Start time: 23:52:57 on Jul 25,2026
# ** Note: (vsim-3813) Design is being optimized due to module recompilation...
# ** Note: (vsim-8611) Generating debug db.
# Loading sv_std.std
# Loading work.testcase_pkg(fast)
# Loading work.ahb_pkg(fast)
# Loading work.testbench_3_sv_unit(fast)
# Loading work.ahb_tb_top(fast)
# Loading work.taxi_ahbl_if(fast)
# Loading work.taxi_ahbl_ram(fast)
# Loading work.test(fast)
# Loading work.sva_checker(fast)
# Loading work.taxi_ahbl_if(fast)
# ** Note: (vsim-8900) Creating design debug database vsim.dbg.
# Sv_Seed = 937233205
# run -all
# [TEST] TESTNAME=READ_WAIT_STATE TIMEOUT=1000
# [AHB_TRANS] WRITE i_hsize=WORD i_htrans=NONSEQ i_haddr=0x4 i_hwdata=0x4b20e9b7
# [AHB_TRANS]  READ i_hsize=WORD i_htrans=NONSEQ i_haddr=0x4 i_hwdata=0x0
# [AHB_TRANS] WRITE i_hsize=WORD i_htrans=NONSEQ i_haddr=0x4 i_hwdata=0x4197f7
# [AHB_TRANS] WRITE i_hsize=WORD i_htrans=NONSEQ i_haddr=0x4 i_hwdata=0x43be7c9
# [AHB_TRANS] WRITE i_hsize=WORD i_htrans=NONSEQ i_haddr=0x4 i_hwdata=0x15b457cd
# [AHB_TRANS] WRITE i_hsize=WORD i_htrans=NONSEQ i_haddr=0x4 i_hwdata=0x7c8f6e93
# [AHB_TRANS]  READ i_hsize=WORD i_htrans=NONSEQ i_haddr=0x4 i_hwdata=0x0
# [AHB_TRANS]  READ i_hsize=WORD i_htrans=NONSEQ i_haddr=0x4 i_hwdata=0x0
# [COVER] OKAY COMPLETE observed
# [COVER] OKAY COMPLETE observed
# [COVER] OKAY COMPLETE observed
# [COVER] OKAY COMPLETE observed
# [225000][MON-ADDR] A=0x0 W=0 HSIZE=WORD HTRANS=IDLE
# [PASS] VALID_RESP OK
# [COVER] VALID_RESP observed
# [COVER] OKAY COMPLETE observed
# [COVER] OKAY COMPLETE observed
# [235000][READ][MON-DATA] A=0x0 RDATA=0x0 RESP=0
# [PASS] VALID_RESP OK
# [COVER] VALID_RESP observed
# [COVER] OKAY COMPLETE observed
# [COVER] OKAY COMPLETE observed
# [245000][MON-ADDR] A=0x4 W=1 HSIZE=WORD HTRANS=NONSEQ
# [PASS] VALID_RESP OK
# [COVER] VALID_RESP observed
# [COVER] OKAY COMPLETE observed
# [COVER] OKAY COMPLETE observed
# [255000][WRITE][MON-DATA] A=0x4 WDATA=0x4b20e9b7 RESP=0
# [255000][SB-WRITE] ADDR=0x00000004 SIZE=WORD DATA=0x4b20e9b7
# [PASS] VALID_RESP OK
# [COVER] VALID_RESP observed
# [COVER] OKAY COMPLETE observed
# [COVER] OKAY COMPLETE observed
# [265000][MON-ADDR] A=0x4 W=0 HSIZE=WORD HTRANS=NONSEQ
# [PASS] VALID_RESP OK
# [COVER] VALID_RESP observed
# [COVER] OKAY COMPLETE observed
# [COVER] OKAY COMPLETE observed
# [295000][READ][MON-DATA] A=0x4 RDATA=0x4b20e9b7 RESP=0
# [295000][SB-PASS ] ADDR=0x00000004 SIZE=WORD EXP=0x4b20e9b7 ACT=0x4b20e9b7
# [PASS] VALID_RESP OK
# [COVER] VALID_RESP observed
# [COVER] OKAY COMPLETE observed
# [COVER] OKAY COMPLETE observed
# [325000][MON-ADDR] A=0x4 W=0 HSIZE=WORD HTRANS=NONSEQ
# [PASS] VALID_RESP OK
# [COVER] VALID_RESP observed
# [COVER] OKAY COMPLETE observed
# [COVER] OKAY COMPLETE observed
# [355000][READ][MON-DATA] A=0x4 RDATA=0x4b20e9b7 RESP=0
# [355000][SB-PASS ] ADDR=0x00000004 SIZE=WORD EXP=0x4b20e9b7 ACT=0x4b20e9b7
# [PASS] VALID_RESP OK
# [COVER] VALID_RESP observed
# [COVER] OKAY COMPLETE observed
# [COVER] OKAY COMPLETE observed
# [365000][MON-ADDR] A=0x4 W=1 HSIZE=WORD HTRANS=NONSEQ
# [PASS] VALID_RESP OK
# [COVER] VALID_RESP observed
# [COVER] OKAY COMPLETE observed
# [COVER] OKAY COMPLETE observed
# [375000][WRITE][MON-DATA] A=0x4 WDATA=0x4197f7 RESP=0
# [375000][SB-WRITE] ADDR=0x00000004 SIZE=WORD DATA=0x004197f7
# [PASS] VALID_RESP OK
# [COVER] VALID_RESP observed
# [COVER] OKAY COMPLETE observed
# [COVER] OKAY COMPLETE observed
# [385000][MON-ADDR] A=0x4 W=1 HSIZE=WORD HTRANS=NONSEQ
# [PASS] VALID_RESP OK
# [COVER] VALID_RESP observed
# [COVER] OKAY COMPLETE observed
# [COVER] OKAY COMPLETE observed
# [395000][WRITE][MON-DATA] A=0x4 WDATA=0x43be7c9 RESP=0
# [395000][SB-WRITE] ADDR=0x00000004 SIZE=WORD DATA=0x043be7c9
# [PASS] VALID_RESP OK
# [COVER] VALID_RESP observed
# [COVER] OKAY COMPLETE observed
# [COVER] OKAY COMPLETE observed
# [405000][MON-ADDR] A=0x4 W=1 HSIZE=WORD HTRANS=NONSEQ
# [PASS] VALID_RESP OK
# [COVER] VALID_RESP observed
# [COVER] OKAY COMPLETE observed
# [COVER] OKAY COMPLETE observed
# [415000][WRITE][MON-DATA] A=0x4 WDATA=0x43be7c9 RESP=0
# [415000][SB-WRITE] ADDR=0x00000004 SIZE=WORD DATA=0x043be7c9
# [PASS] VALID_RESP OK
# [COVER] VALID_RESP observed
# [COVER] OKAY COMPLETE observed
# [COVER] OKAY COMPLETE observed
# [425000][MON-ADDR] A=0x4 W=1 HSIZE=WORD HTRANS=NONSEQ
# [PASS] VALID_RESP OK
# [COVER] VALID_RESP observed
# [COVER] OKAY COMPLETE observed
# [COVER] OKAY COMPLETE observed
# [435000][WRITE][MON-DATA] A=0x4 WDATA=0x15b457cd RESP=0
# [435000][SB-WRITE] ADDR=0x00000004 SIZE=WORD DATA=0x15b457cd
# [PASS] VALID_RESP OK
# [COVER] VALID_RESP observed
# [COVER] OKAY COMPLETE observed
# [COVER] OKAY COMPLETE observed
# [445000][MON-ADDR] A=0x4 W=1 HSIZE=WORD HTRANS=NONSEQ
# [PASS] VALID_RESP OK
# [COVER] VALID_RESP observed
# [COVER] OKAY COMPLETE observed
# [COVER] OKAY COMPLETE observed
# [455000][WRITE][MON-DATA] A=0x4 WDATA=0x7c8f6e93 RESP=0
# [455000][SB-WRITE] ADDR=0x00000004 SIZE=WORD DATA=0x7c8f6e93
# [PASS] VALID_RESP OK
# [COVER] VALID_RESP observed
# [COVER] OKAY COMPLETE observed
# [COVER] OKAY COMPLETE observed
# [465000][MON-ADDR] A=0x4 W=1 HSIZE=WORD HTRANS=NONSEQ
# [PASS] VALID_RESP OK
# [COVER] VALID_RESP observed
# [COVER] OKAY COMPLETE observed
# [COVER] OKAY COMPLETE observed
# [475000][WRITE][MON-DATA] A=0x4 WDATA=0x7c8f6e93 RESP=0
# [475000][SB-WRITE] ADDR=0x00000004 SIZE=WORD DATA=0x7c8f6e93
# [PASS] VALID_RESP OK
# [COVER] VALID_RESP observed
# [COVER] OKAY COMPLETE observed
# [COVER] OKAY COMPLETE observed
# [505000][MON-ADDR] A=0x4 W=0 HSIZE=WORD HTRANS=NONSEQ
# [PASS] VALID_RESP OK
# [COVER] VALID_RESP observed
# [COVER] OKAY COMPLETE observed
# [COVER] OKAY COMPLETE observed
# [535000][READ][MON-DATA] A=0x4 RDATA=0x7c8f6e93 RESP=0
# [TEST] TIMEOUT reached
# 
# ================ SCOREBOARD SUMMARY ================
#   Transactions : 10
#     Writes     : 7
#     Reads      : 2
#   Errors       : 0
#   Pass Rate    : 100.00%
#   RESULT       : PASS ✅
# ===================================================
# 
# ** Note: $finish    : ./TB/test.sv(111)
#    Time: 535 ns  Iteration: 1  Instance: /ahb_tb_top/t1
# Break in Task std/mailbox::get at C:/questasim64_10.7c/win64/../verilog_src/std/std.sv line 41
#  quit -sim
# End time: 23:53:03 on Jul 25,2026, Elapsed time: 0:00:06
# Errors: 0, Warnings: 0
# 
