# vsim -c -coverage -debugDB -sv_seed random -voptargs="+acc" work.ahb_tb_top "+TESTNAME=TEST_HRESP" -onfinish final -do "run -all; coverage save -onexit TEST_HRESP.ucdb; quit -sim;" 
# Start time: 23:52:45 on Jul 25,2026
# ** Note: (vsim-8009) Loading existing optimized design _opt2
# Loading sv_std.std
# Loading work.testcase_pkg(fast)
# Loading work.ahb_pkg(fast)
# Loading work.testbench_sv_unit(fast)
# Loading work.ahb_tb_top(fast)
# Loading work.taxi_ahbl_if(fast)
# Loading work.taxi_ahbl_ram(fast)
# Loading work.test(fast)
# Loading work.sva_checker(fast)
# Loading work.taxi_ahbl_if(fast)
# ** Note: (vsim-8716) Reusing existing debug database vsim.dbg.
# Sv_Seed = 1539125381
# run -all
# [TEST] TESTNAME=TEST_HRESP TIMEOUT=1000
# [TEST HRESP] WRITE i_hsize=DWORD i_htrans=NONSEQ i_haddr=0x6599a530 i_hwdata=0x26708af9
# [TEST HRESP] WRITE i_hsize=DWORD i_htrans=NONSEQ i_haddr=0xd8943cd8 i_hwdata=0x7fee5a8d
# [TEST HRESP] WRITE i_hsize=DWORD i_htrans=NONSEQ i_haddr=0x7c1cfe98 i_hwdata=0x432daaca
# [TEST HRESP] WRITE i_hsize=DWORD i_htrans=NONSEQ i_haddr=0x89c7e218 i_hwdata=0x50f030c1
# [TEST HRESP] WRITE i_hsize=DWORD i_htrans=NONSEQ i_haddr=0x7bc5a8 i_hwdata=0x89f0422f
# [TEST HRESP]  READ i_hsize=DWORD i_htrans=NONSEQ i_haddr=0xe72ea60 i_hwdata=0x0
# [TEST HRESP]  READ i_hsize=DWORD i_htrans=NONSEQ i_haddr=0x9329b8c8 i_hwdata=0x0
# [TEST HRESP]  READ i_hsize=DWORD i_htrans=NONSEQ i_haddr=0xce2d9a18 i_hwdata=0x0
# [COVER] OKAY COMPLETE observed
# [COVER] OKAY COMPLETE observed
# [COVER] OKAY COMPLETE observed
# [COVER] OKAY COMPLETE observed
# [225000][MON-ADDR] A=0x0 W=0 HSIZE=WORD HTRANS=IDLE
# [PASS] VALID_RESP OK
# [COVER] VALID_RESP observed
# ** Error: [FAIL] HSIZE=3 must return ERROR
#    Time: 235 ns Started: 235 ns  Scope: ahb_tb_top.chk.ASSERT_HSIZE3_ERROR File: ./TB/sva_checker.sv Line: 95
# [COVER] OKAY COMPLETE observed
# [COVER] OKAY COMPLETE observed
# [235000][READ][MON-DATA] A=0x0 RDATA=0x0 RESP=0
# [PASS] VALID_RESP OK
# [COVER] VALID_RESP observed
# ** Error: [FAIL] HSIZE=3 must return ERROR
#    Time: 245 ns Started: 245 ns  Scope: ahb_tb_top.chk.ASSERT_HSIZE3_ERROR File: ./TB/sva_checker.sv Line: 95
# [COVER] OKAY COMPLETE observed
# [COVER] OKAY COMPLETE observed
# [245000][MON-ADDR] A=0x6599a530 W=1 HSIZE=DWORD HTRANS=NONSEQ
# [PASS] VALID_RESP OK
# [COVER] VALID_RESP observed
# ** Error: [FAIL] HSIZE=3 must return ERROR
#    Time: 255 ns Started: 255 ns  Scope: ahb_tb_top.chk.ASSERT_HSIZE3_ERROR File: ./TB/sva_checker.sv Line: 95
# [COVER] OKAY COMPLETE observed
# [COVER] OKAY COMPLETE observed
# [255000][WRITE][MON-DATA] A=0x6599a530 WDATA=0x26708af9 RESP=0
# [PASS] VALID_RESP OK
# [COVER] VALID_RESP observed
# ** Error: [FAIL] HSIZE=3 must return ERROR
#    Time: 265 ns Started: 265 ns  Scope: ahb_tb_top.chk.ASSERT_HSIZE3_ERROR File: ./TB/sva_checker.sv Line: 95
# [COVER] OKAY COMPLETE observed
# [COVER] OKAY COMPLETE observed
# [265000][MON-ADDR] A=0xd8943cd8 W=1 HSIZE=DWORD HTRANS=NONSEQ
# [PASS] VALID_RESP OK
# [COVER] VALID_RESP observed
# ** Error: [FAIL] HSIZE=3 must return ERROR
#    Time: 275 ns Started: 275 ns  Scope: ahb_tb_top.chk.ASSERT_HSIZE3_ERROR File: ./TB/sva_checker.sv Line: 95
# [COVER] OKAY COMPLETE observed
# [COVER] OKAY COMPLETE observed
# [275000][WRITE][MON-DATA] A=0xd8943cd8 WDATA=0x7fee5a8d RESP=0
# [PASS] VALID_RESP OK
# [COVER] VALID_RESP observed
# ** Error: [FAIL] HSIZE=3 must return ERROR
#    Time: 285 ns Started: 285 ns  Scope: ahb_tb_top.chk.ASSERT_HSIZE3_ERROR File: ./TB/sva_checker.sv Line: 95
# [COVER] OKAY COMPLETE observed
# [COVER] OKAY COMPLETE observed
# [285000][MON-ADDR] A=0xd8943cd8 W=1 HSIZE=DWORD HTRANS=NONSEQ
# [PASS] VALID_RESP OK
# [COVER] VALID_RESP observed
# ** Error: [FAIL] HSIZE=3 must return ERROR
#    Time: 295 ns Started: 295 ns  Scope: ahb_tb_top.chk.ASSERT_HSIZE3_ERROR File: ./TB/sva_checker.sv Line: 95
# [COVER] OKAY COMPLETE observed
# [COVER] OKAY COMPLETE observed
# [295000][WRITE][MON-DATA] A=0xd8943cd8 WDATA=0x7fee5a8d RESP=0
# [PASS] VALID_RESP OK
# [COVER] VALID_RESP observed
# ** Error: [FAIL] HSIZE=3 must return ERROR
#    Time: 305 ns Started: 305 ns  Scope: ahb_tb_top.chk.ASSERT_HSIZE3_ERROR File: ./TB/sva_checker.sv Line: 95
# [COVER] OKAY COMPLETE observed
# [COVER] OKAY COMPLETE observed
# [305000][MON-ADDR] A=0x7c1cfe98 W=1 HSIZE=DWORD HTRANS=NONSEQ
# [PASS] VALID_RESP OK
# [COVER] VALID_RESP observed
# ** Error: [FAIL] HSIZE=3 must return ERROR
#    Time: 315 ns Started: 315 ns  Scope: ahb_tb_top.chk.ASSERT_HSIZE3_ERROR File: ./TB/sva_checker.sv Line: 95
# [COVER] OKAY COMPLETE observed
# [COVER] OKAY COMPLETE observed
# [315000][WRITE][MON-DATA] A=0x7c1cfe98 WDATA=0x432daaca RESP=0
# [PASS] VALID_RESP OK
# [COVER] VALID_RESP observed
# ** Error: [FAIL] HSIZE=3 must return ERROR
#    Time: 325 ns Started: 325 ns  Scope: ahb_tb_top.chk.ASSERT_HSIZE3_ERROR File: ./TB/sva_checker.sv Line: 95
# [COVER] OKAY COMPLETE observed
# [COVER] OKAY COMPLETE observed
# [325000][MON-ADDR] A=0x89c7e218 W=1 HSIZE=DWORD HTRANS=NONSEQ
# [PASS] VALID_RESP OK
# [COVER] VALID_RESP observed
# ** Error: [FAIL] HSIZE=3 must return ERROR
#    Time: 335 ns Started: 335 ns  Scope: ahb_tb_top.chk.ASSERT_HSIZE3_ERROR File: ./TB/sva_checker.sv Line: 95
# [COVER] OKAY COMPLETE observed
# [COVER] OKAY COMPLETE observed
# [335000][WRITE][MON-DATA] A=0x89c7e218 WDATA=0x50f030c1 RESP=0
# [PASS] VALID_RESP OK
# [COVER] VALID_RESP observed
# ** Error: [FAIL] HSIZE=3 must return ERROR
#    Time: 345 ns Started: 345 ns  Scope: ahb_tb_top.chk.ASSERT_HSIZE3_ERROR File: ./TB/sva_checker.sv Line: 95
# [COVER] OKAY COMPLETE observed
# [COVER] OKAY COMPLETE observed
# [345000][MON-ADDR] A=0x89c7e218 W=1 HSIZE=DWORD HTRANS=NONSEQ
# [PASS] VALID_RESP OK
# [COVER] VALID_RESP observed
# ** Error: [FAIL] HSIZE=3 must return ERROR
#    Time: 355 ns Started: 355 ns  Scope: ahb_tb_top.chk.ASSERT_HSIZE3_ERROR File: ./TB/sva_checker.sv Line: 95
# [COVER] OKAY COMPLETE observed
# [COVER] OKAY COMPLETE observed
# [355000][WRITE][MON-DATA] A=0x89c7e218 WDATA=0x50f030c1 RESP=0
# [PASS] VALID_RESP OK
# [COVER] VALID_RESP observed
# ** Error: [FAIL] HSIZE=3 must return ERROR
#    Time: 365 ns Started: 365 ns  Scope: ahb_tb_top.chk.ASSERT_HSIZE3_ERROR File: ./TB/sva_checker.sv Line: 95
# [COVER] OKAY COMPLETE observed
# [COVER] OKAY COMPLETE observed
# [365000][MON-ADDR] A=0x7bc5a8 W=1 HSIZE=DWORD HTRANS=NONSEQ
# [PASS] VALID_RESP OK
# [COVER] VALID_RESP observed
# ** Error: [FAIL] HSIZE=3 must return ERROR
#    Time: 375 ns Started: 375 ns  Scope: ahb_tb_top.chk.ASSERT_HSIZE3_ERROR File: ./TB/sva_checker.sv Line: 95
# [COVER] OKAY COMPLETE observed
# [COVER] OKAY COMPLETE observed
# [375000][WRITE][MON-DATA] A=0x7bc5a8 WDATA=0x89f0422f RESP=0
# [PASS] VALID_RESP OK
# [COVER] VALID_RESP observed
# ** Error: [FAIL] HSIZE=3 must return ERROR
#    Time: 385 ns Started: 385 ns  Scope: ahb_tb_top.chk.ASSERT_HSIZE3_ERROR File: ./TB/sva_checker.sv Line: 95
# [COVER] OKAY COMPLETE observed
# [COVER] OKAY COMPLETE observed
# [385000][MON-ADDR] A=0xe72ea60 W=0 HSIZE=DWORD HTRANS=NONSEQ
# [PASS] VALID_RESP OK
# [COVER] VALID_RESP observed
# ** Error: [FAIL] HSIZE=3 must return ERROR
#    Time: 395 ns Started: 395 ns  Scope: ahb_tb_top.chk.ASSERT_HSIZE3_ERROR File: ./TB/sva_checker.sv Line: 95
# [COVER] OKAY COMPLETE observed
# [COVER] OKAY COMPLETE observed
# [395000][READ][MON-DATA] A=0xe72ea60 RDATA=0x0 RESP=0
# [395000][SB-PASS ] ADDR=0x0e72ea60 SIZE=DWORD EXP=0x00000000 ACT=0x00000000
# [PASS] VALID_RESP OK
# [COVER] VALID_RESP observed
# ** Error: [FAIL] HSIZE=3 must return ERROR
#    Time: 405 ns Started: 405 ns  Scope: ahb_tb_top.chk.ASSERT_HSIZE3_ERROR File: ./TB/sva_checker.sv Line: 95
# [COVER] OKAY COMPLETE observed
# [COVER] OKAY COMPLETE observed
# [405000][MON-ADDR] A=0xe72ea60 W=0 HSIZE=DWORD HTRANS=NONSEQ
# [PASS] VALID_RESP OK
# [COVER] VALID_RESP observed
# ** Error: [FAIL] HSIZE=3 must return ERROR
#    Time: 415 ns Started: 415 ns  Scope: ahb_tb_top.chk.ASSERT_HSIZE3_ERROR File: ./TB/sva_checker.sv Line: 95
# [COVER] OKAY COMPLETE observed
# [COVER] OKAY COMPLETE observed
# [415000][READ][MON-DATA] A=0xe72ea60 RDATA=0x0 RESP=0
# [415000][SB-PASS ] ADDR=0x0e72ea60 SIZE=DWORD EXP=0x00000000 ACT=0x00000000
# [PASS] VALID_RESP OK
# [COVER] VALID_RESP observed
# ** Error: [FAIL] HSIZE=3 must return ERROR
#    Time: 425 ns Started: 425 ns  Scope: ahb_tb_top.chk.ASSERT_HSIZE3_ERROR File: ./TB/sva_checker.sv Line: 95
# [COVER] OKAY COMPLETE observed
# [COVER] OKAY COMPLETE observed
# [425000][MON-ADDR] A=0x9329b8c8 W=0 HSIZE=DWORD HTRANS=NONSEQ
# [PASS] VALID_RESP OK
# [COVER] VALID_RESP observed
# ** Error: [FAIL] HSIZE=3 must return ERROR
#    Time: 435 ns Started: 435 ns  Scope: ahb_tb_top.chk.ASSERT_HSIZE3_ERROR File: ./TB/sva_checker.sv Line: 95
# [COVER] OKAY COMPLETE observed
# [COVER] OKAY COMPLETE observed
# [435000][READ][MON-DATA] A=0x9329b8c8 RDATA=0x0 RESP=0
# [435000][SB-PASS ] ADDR=0x9329b8c8 SIZE=DWORD EXP=0x00000000 ACT=0x00000000
# [PASS] VALID_RESP OK
# [COVER] VALID_RESP observed
# ** Error: [FAIL] HSIZE=3 must return ERROR
#    Time: 445 ns Started: 445 ns  Scope: ahb_tb_top.chk.ASSERT_HSIZE3_ERROR File: ./TB/sva_checker.sv Line: 95
# [COVER] OKAY COMPLETE observed
# [COVER] OKAY COMPLETE observed
# [445000][MON-ADDR] A=0xce2d9a18 W=0 HSIZE=DWORD HTRANS=NONSEQ
# [PASS] VALID_RESP OK
# [COVER] VALID_RESP observed
# ** Error: [FAIL] HSIZE=3 must return ERROR
#    Time: 455 ns Started: 455 ns  Scope: ahb_tb_top.chk.ASSERT_HSIZE3_ERROR File: ./TB/sva_checker.sv Line: 95
# [COVER] OKAY COMPLETE observed
# [COVER] OKAY COMPLETE observed
# [455000][READ][MON-DATA] A=0xce2d9a18 RDATA=0x0 RESP=0
# [455000][SB-PASS ] ADDR=0xce2d9a18 SIZE=DWORD EXP=0x00000000 ACT=0x00000000
# [PASS] VALID_RESP OK
# [COVER] VALID_RESP observed
# ** Error: [FAIL] HSIZE=3 must return ERROR
#    Time: 465 ns Started: 465 ns  Scope: ahb_tb_top.chk.ASSERT_HSIZE3_ERROR File: ./TB/sva_checker.sv Line: 95
# [COVER] OKAY COMPLETE observed
# [COVER] OKAY COMPLETE observed
# [465000][MON-ADDR] A=0xce2d9a18 W=0 HSIZE=DWORD HTRANS=NONSEQ
# [PASS] VALID_RESP OK
# [COVER] VALID_RESP observed
# ** Error: [FAIL] HSIZE=3 must return ERROR
#    Time: 475 ns Started: 475 ns  Scope: ahb_tb_top.chk.ASSERT_HSIZE3_ERROR File: ./TB/sva_checker.sv Line: 95
# [COVER] OKAY COMPLETE observed
# [COVER] OKAY COMPLETE observed
# [475000][READ][MON-DATA] A=0xce2d9a18 RDATA=0x0 RESP=0
# [TEST] TIMEOUT reached
# 
# ================ SCOREBOARD SUMMARY ================
#   Transactions : 12
#     Writes     : 0
#     Reads      : 4
#   Errors       : 0
#   Pass Rate    : 100.00%
#   RESULT       : PASS ✅
# ===================================================
# 
# ** Note: $finish    : ./TB/test.sv(111)
#    Time: 475 ns  Iteration: 1  Instance: /ahb_tb_top/t1
# Break in Task std/mailbox::get at C:/questasim64_10.7c/win64/../verilog_src/std/std.sv line 41
#  coverage save -onexit TEST_HRESP.ucdb
#  quit -sim
# Saving coverage database on exit...
# End time: 23:52:50 on Jul 25,2026, Elapsed time: 0:00:05
# Errors: 25, Warnings: 0
# 
# QuestaSim-64 vcover 10.7c Coverage Utility 2018.08 Aug 18 2018
# Start time: 23:52:50 on Jul 25,2026
# vcover merge all_tests.ucdb ./FIXED_ADDR.ucdb ./RAND_ADDR.ucdb ./RAND_ADDR_INRANGE.ucdb ./TEST_BUSY.ucdb ./TEST_HRESP.ucdb ./TEST_IDLE.ucdb ./TEST_RAND_HSIZE.ucdb ./TEST_SEQ.ucdb 
# QuestaSim-64 vcover 10.7c Coverage Utility 2018.08 Aug 18 2018
# Merging file ./FIXED_ADDR.ucdb
# Merging file ./RAND_ADDR.ucdb
# Merging file ./RAND_ADDR_INRANGE.ucdb
# Merging file ./TEST_BUSY.ucdb
# Merging file ./TEST_HRESP.ucdb
# Merging file ./TEST_IDLE.ucdb
# Merging file ./TEST_RAND_HSIZE.ucdb
# Merging file ./TEST_SEQ.ucdb
# Writing merged result to all_tests.ucdb
# 
# End time: 23:52:50 on Jul 25,2026, Elapsed time: 0:00:00
# Errors: 0, Warnings: 0
# QuestaSim-64 vcover 10.7c Coverage Utility 2018.08 Aug 18 2018
# Start time: 23:52:50 on Jul 25,2026
# vcover report -html -htmldir covhtmlreport all_tests.ucdb 
# Report created in covhtmlreport/index.html
# End time: 23:52:51 on Jul 25,2026, Elapsed time: 0:00:01
# Errors: 0, Warnings: 0
# WRITE_WAIT_STATE READ_WAIT_STATE
# QuestaSim-64 vlog 10.7c Compiler 2018.08 Aug 18 2018
# Start time: 23:52:51 on Jul 25,2026
# vlog -reportprogress 300 "+cover" ./TB/taxi_ahbl_if.sv ./RTL/taxi_ahbl_ram.sv ./TB/testbench_2.sv 
# -- Compiling interface taxi_ahbl_if
# -- Compiling module taxi_ahbl_ram
# -- Compiling package ahb_pkg
# -- Compiling package testbench_2_sv_unit
# -- Importing package ahb_pkg
# -- Importing package testcase_pkg
# -- Compiling package testcase_pkg
# -- Compiling program sva_checker
# -- Compiling program test
# -- Compiling module ahb_tb_top
# 
# Top level modules:
# 	ahb_tb_top
# End time: 23:52:52 on Jul 25,2026, Elapsed time: 0:00:01
# Errors: 0, Warnings: 0
