# vsim -c -coverage -debugDB -sv_seed random -voptargs="+acc" work.ahb_tb_top "+TESTNAME=WRITE_WAIT_STATE" -onfinish final -do "run -all; quit -sim;" 
# Start time: 23:52:52 on Jul 25,2026
# ** Note: (vsim-3813) Design is being optimized due to module recompilation...
# ** Note: (vsim-8611) Generating debug db.
# Loading sv_std.std
# Loading work.testcase_pkg(fast)
# Loading work.ahb_pkg(fast)
# Loading work.testbench_2_sv_unit(fast)
# Loading work.ahb_tb_top(fast)
# Loading work.taxi_ahbl_if(fast)
# Loading work.taxi_ahbl_ram(fast)
# Loading work.test(fast)
# Loading work.sva_checker(fast)
# Loading work.taxi_ahbl_if(fast)
# ** Note: (vsim-8900) Creating design debug database vsim.dbg.
# Sv_Seed = 1832727153
# run -all
# [TEST] TESTNAME=WRITE_WAIT_STATE TIMEOUT=1000
# [AHB_TRANS] WRITE i_hsize=WORD i_htrans=NONSEQ i_haddr=0x4 i_hwdata=0x11d5cd5a
# [AHB_TRANS]  READ i_hsize=WORD i_htrans=NONSEQ i_haddr=0x4 i_hwdata=0x0
# [AHB_TRANS] WRITE i_hsize=WORD i_htrans=NONSEQ i_haddr=0x4 i_hwdata=0x199cec4d
# [AHB_TRANS]  READ i_hsize=WORD i_htrans=NONSEQ i_haddr=0x4 i_hwdata=0x0
# [AHB_TRANS] WRITE i_hsize=WORD i_htrans=NONSEQ i_haddr=0x4 i_hwdata=0x85751470
# [AHB_TRANS] WRITE i_hsize=WORD i_htrans=NONSEQ i_haddr=0x4 i_hwdata=0x95682a3c
# [AHB_TRANS]  READ i_hsize=WORD i_htrans=NONSEQ i_haddr=0x4 i_hwdata=0x0
# [AHB_TRANS] WRITE i_hsize=WORD i_htrans=NONSEQ i_haddr=0x4 i_hwdata=0x93bf2a97
# [COVER] OKAY COMPLETE observed
# [COVER] OKAY COMPLETE observed
# [COVER] OKAY COMPLETE observed
# [COVER] OKAY COMPLETE observed
# [225000][MON-ADDR] A=0x0 W=0 HSIZE=WORD HTRANS=IDLE
# [PASS] VALID_RESP OK
# [COVER] VALID_RESP observed
# [COVER] OKAY COMPLETE observed
# [COVER] OKAY COMPLETE observed
# [235000][READ][MON-DATA] A=0x0 RDATA=0x0 RESP=0
# [PASS] VALID_RESP OK
# [COVER] VALID_RESP observed
# [COVER] OKAY COMPLETE observed
# [COVER] OKAY COMPLETE observed
# [265000][MON-ADDR] A=0x4 W=1 HSIZE=WORD HTRANS=NONSEQ
# [PASS] VALID_RESP OK
# [COVER] VALID_RESP observed
# [COVER] OKAY COMPLETE observed
# [COVER] OKAY COMPLETE observed
# [295000][WRITE][MON-DATA] A=0x4 WDATA=0x11d5cd5a RESP=0
# [295000][SB-WRITE] ADDR=0x00000004 SIZE=WORD DATA=0x11d5cd5a
# [PASS] VALID_RESP OK
# [COVER] VALID_RESP observed
# [COVER] OKAY COMPLETE observed
# [COVER] OKAY COMPLETE observed
# [325000][MON-ADDR] A=0x4 W=0 HSIZE=WORD HTRANS=NONSEQ
# [PASS] VALID_RESP OK
# [COVER] VALID_RESP observed
# [COVER] OKAY COMPLETE observed
# [COVER] OKAY COMPLETE observed
# [335000][READ][MON-DATA] A=0x4 RDATA=0x11d5cd5a RESP=0
# [335000][SB-PASS ] ADDR=0x00000004 SIZE=WORD EXP=0x11d5cd5a ACT=0x11d5cd5a
# [PASS] VALID_RESP OK
# [COVER] VALID_RESP observed
# [COVER] OKAY COMPLETE observed
# [COVER] OKAY COMPLETE observed
# [345000][MON-ADDR] A=0x4 W=0 HSIZE=WORD HTRANS=NONSEQ
# [PASS] VALID_RESP OK
# [COVER] VALID_RESP observed
# [COVER] OKAY COMPLETE observed
# [COVER] OKAY COMPLETE observed
# [355000][READ][MON-DATA] A=0x4 RDATA=0x11d5cd5a RESP=0
# [355000][SB-PASS ] ADDR=0x00000004 SIZE=WORD EXP=0x11d5cd5a ACT=0x11d5cd5a
# [PASS] VALID_RESP OK
# [COVER] VALID_RESP observed
# [COVER] OKAY COMPLETE observed
# [COVER] OKAY COMPLETE observed
# [385000][MON-ADDR] A=0x4 W=1 HSIZE=WORD HTRANS=NONSEQ
# [PASS] VALID_RESP OK
# [COVER] VALID_RESP observed
# [COVER] OKAY COMPLETE observed
# [COVER] OKAY COMPLETE observed
# [415000][WRITE][MON-DATA] A=0x4 WDATA=0x199cec4d RESP=0
# [415000][SB-WRITE] ADDR=0x00000004 SIZE=WORD DATA=0x199cec4d
# [PASS] VALID_RESP OK
# [COVER] VALID_RESP observed
# [COVER] OKAY COMPLETE observed
# [COVER] OKAY COMPLETE observed
# [445000][MON-ADDR] A=0x4 W=0 HSIZE=WORD HTRANS=NONSEQ
# [PASS] VALID_RESP OK
# [COVER] VALID_RESP observed
# [COVER] OKAY COMPLETE observed
# [COVER] OKAY COMPLETE observed
# [455000][READ][MON-DATA] A=0x4 RDATA=0x199cec4d RESP=0
# [455000][SB-PASS ] ADDR=0x00000004 SIZE=WORD EXP=0x199cec4d ACT=0x199cec4d
# [PASS] VALID_RESP OK
# [COVER] VALID_RESP observed
# [COVER] OKAY COMPLETE observed
# [COVER] OKAY COMPLETE observed
# [465000][MON-ADDR] A=0x4 W=0 HSIZE=WORD HTRANS=NONSEQ
# [PASS] VALID_RESP OK
# [COVER] VALID_RESP observed
# [COVER] OKAY COMPLETE observed
# [COVER] OKAY COMPLETE observed
# [475000][READ][MON-DATA] A=0x4 RDATA=0x199cec4d RESP=0
# [475000][SB-PASS ] ADDR=0x00000004 SIZE=WORD EXP=0x199cec4d ACT=0x199cec4d
# [PASS] VALID_RESP OK
# [COVER] VALID_RESP observed
# [COVER] OKAY COMPLETE observed
# [COVER] OKAY COMPLETE observed
# [505000][MON-ADDR] A=0x4 W=1 HSIZE=WORD HTRANS=NONSEQ
# [PASS] VALID_RESP OK
# [COVER] VALID_RESP observed
# [COVER] OKAY COMPLETE observed
# [COVER] OKAY COMPLETE observed
# [535000][WRITE][MON-DATA] A=0x4 WDATA=0x85751470 RESP=0
# [535000][SB-WRITE] ADDR=0x00000004 SIZE=WORD DATA=0x85751470
# [PASS] VALID_RESP OK
# [COVER] VALID_RESP observed
# [COVER] OKAY COMPLETE observed
# [COVER] OKAY COMPLETE observed
# [565000][MON-ADDR] A=0x4 W=1 HSIZE=WORD HTRANS=NONSEQ
# [PASS] VALID_RESP OK
# [COVER] VALID_RESP observed
# [COVER] OKAY COMPLETE observed
# [COVER] OKAY COMPLETE observed
# [595000][WRITE][MON-DATA] A=0x4 WDATA=0x95682a3c RESP=0
# [595000][SB-WRITE] ADDR=0x00000004 SIZE=WORD DATA=0x95682a3c
# [PASS] VALID_RESP OK
# [COVER] VALID_RESP observed
# [COVER] OKAY COMPLETE observed
# [COVER] OKAY COMPLETE observed
# [625000][MON-ADDR] A=0x4 W=1 HSIZE=WORD HTRANS=NONSEQ
# [TEST] TIMEOUT reached
# 
# ================ SCOREBOARD SUMMARY ================
#   Transactions : 9
#     Writes     : 4
#     Reads      : 4
#   Errors       : 0
#   Pass Rate    : 100.00%
#   RESULT       : PASS ✅
# ===================================================
# 
# ** Note: $finish    : ./TB/test.sv(111)
#    Time: 635 ns  Iteration: 2  Instance: /ahb_tb_top/t1
# Break at C:/questasim64_10.7c/win64/../verilog_src/std/std.sv line 39
#  quit -sim
# End time: 23:52:57 on Jul 25,2026, Elapsed time: 0:00:05
# Errors: 0, Warnings: 0
# 
# QuestaSim-64 vlog 10.7c Compiler 2018.08 Aug 18 2018
# Start time: 23:52:57 on Jul 25,2026
# vlog -reportprogress 300 "+cover" ./TB/taxi_ahbl_if.sv ./RTL/taxi_ahbl_ram.sv ./TB/testbench_3.sv 
# -- Compiling interface taxi_ahbl_if
# -- Compiling module taxi_ahbl_ram
# -- Compiling package ahb_pkg
# -- Compiling package testbench_3_sv_unit
# -- Importing package ahb_pkg
# -- Importing package testcase_pkg
# -- Compiling package testcase_pkg
# -- Compiling program sva_checker
# -- Compiling program test
# -- Compiling module ahb_tb_top
# 
# Top level modules:
# 	ahb_tb_top
# End time: 23:52:57 on Jul 25,2026, Elapsed time: 0:00:00
# Errors: 0, Warnings: 0
