#  log -r /*
#  run -all
# ----------------------------------------------------------------
# UVM-1.1d
# (C) 2007-2013 Mentor Graphics Corporation
# (C) 2007-2013 Cadence Design Systems, Inc.
# (C) 2006-2013 Synopsys, Inc.
# (C) 2011-2013 Cypress Semiconductor Corp.
# ----------------------------------------------------------------
# 
#   ***********       IMPORTANT RELEASE NOTES         ************
# 
#   You are using a version of the UVM library that has been compiled
#   with `UVM_NO_DEPRECATED undefined.
#   See http://www.eda.org/svdb/view.php?id=3313 for more details.
# 
#   You are using a version of the UVM library that has been compiled
#   with `UVM_OBJECT_MUST_HAVE_CONSTRUCTOR undefined.
#   See http://www.eda.org/svdb/view.php?id=3770 for more details.
# 
#       (Specify +UVM_NO_RELNOTES to turn off this notice)
# 
# UVM_INFO C:/questasim64_10.7c/verilog_src/uvm-1.1d/src/base/uvm_root.svh(370) @ 0: reporter [NO_DPI_TSTNAME] UVM_NO_DPI defined--getting UVM_TESTNAME directly, without DPI
# UVM_INFO @ 0: reporter [RNTST] Running test ahb_master_wrap16_test...
# UVM_INFO .\TB\tb\ahb_tb.sv(18) @ 0: uvm_test_top.tb [ahb_tb] Testbench Build Phase is being executed !
# UVM_INFO .\TB\sv\ahb_master_agent.sv(23) @ 0: uvm_test_top.tb.env.master_agent [CFG] Property is_active exists in config DB
# UVM_INFO .\TB\sv\ahb_master_agent.sv(34) @ 0: uvm_test_top.tb.env.master_agent [ahb_master_agent] AGENT IS ACTIVE !
# UVM_INFO .\TB\sv\ahb_slave_agent.sv(23) @ 0: uvm_test_top.tb.env.slave_agent [CFG] Property is_active exists in config DB
# UVM_INFO .\TB\sv\ahb_master_driver.sv(24) @ 0: uvm_test_top.tb.env.master_agent.driver [ahb_master_driver] Driver is connected with interface
# UVM_INFO .\TB\sv\ahb_master_monitor.sv(26) @ 0: uvm_test_top.tb.env.master_agent.monitor [ahb_master_monitor] Driver is connected with interface
# UVM_INFO .\TB\sv\ahb_slave_monitor.sv(26) @ 0: uvm_test_top.tb.env.slave_agent.monitor [ahb_slave_monitor] Driver is connected with interface
# UVM_INFO .\TB\tb\ahb_test_lib.sv(25) @ 0: uvm_test_top [ahb_master_wrap16_test] End of Elaboration Phase of Test is being executed!
# UVM_INFO @ 0: reporter [UVMTOP] UVM testbench topology:
# -------------------------------------------------------------------
# Name                           Type                     Size  Value
# -------------------------------------------------------------------
# uvm_test_top                   ahb_master_wrap16_test   -     @452 
#   tb                           ahb_tb                   -     @471 
#     env                        ahb_env                  -     @478 
#       ahb_scb                  ahb_scoreboard           -     @499 
#         master_imp             uvm_analysis_imp_master  -     @506 
#           recording_detail     integral                 32    'd1  
#         slave_imp              uvm_analysis_imp_slave   -     @514 
#           recording_detail     integral                 32    'd1  
#         recording_detail       integral                 32    'd1  
#       master_agent             ahb_master_agent         -     @485 
#         driver                 ahb_master_driver        -     @555 
#           rsp_port             uvm_analysis_port        -     @570 
#             recording_detail   integral                 32    'd1  
#           seq_item_port        uvm_seq_item_pull_port   -     @562 
#             recording_detail   integral                 32    'd1  
#           recording_detail     integral                 32    'd1  
#         monitor                ahb_master_monitor       -     @538 
#           item_collected_port  uvm_analysis_port        -     @545 
#             recording_detail   integral                 32    'd1  
#           recording_detail     integral                 32    'd1  
#         sequencer              ahb_master_sequencer     -     @578 
#           rsp_export           uvm_analysis_export      -     @585 
#             recording_detail   integral                 32    'd1  
#           seq_item_export      uvm_seq_item_pull_imp    -     @679 
#             recording_detail   integral                 32    'd1  
#           recording_detail     integral                 32    'd1  
#           arbitration_queue    array                    0     -    
#           lock_queue           array                    0     -    
#           num_last_reqs        integral                 32    'd1  
#           num_last_rsps        integral                 32    'd1  
#         recording_detail       integral                 32    'd1  
#       slave_agent              ahb_slave_agent          -     @492 
#         monitor                ahb_slave_monitor        -     @693 
#           item_collected_port  uvm_analysis_port        -     @700 
#             recording_detail   integral                 32    'd1  
#           recording_detail     integral                 32    'd1  
#         recording_detail       integral                 32    'd1  
#       slave_cov                func_cov                 -     @522 
#         analysis_imp           uvm_analysis_imp         -     @529 
#           recording_detail     integral                 32    'd1  
#         recording_detail       integral                 32    'd1  
#       recording_detail         integral                 32    'd1  
#     recording_detail           integral                 32    'd1  
# -------------------------------------------------------------------
# 
# UVM_INFO .\TB\sv\ahb_master_driver.sv(28) @ 0: uvm_test_top.tb.env.master_agent.driver [ahb_master_driver] start of simulation for uvm_test_top.tb.env.master_agent.driver
# UVM_INFO .\TB\sv\ahb_master_monitor.sv(30) @ 0: uvm_test_top.tb.env.master_agent.monitor [ahb_master_monitor] start of simulation for uvm_test_top.tb.env.master_agent.monitor
# UVM_INFO .\TB\sv\ahb_master_agent.sv(48) @ 0: uvm_test_top.tb.env.master_agent [ahb_master_agent] start of simulation for uvm_test_top.tb.env.master_agent
# UVM_INFO .\TB\sv\ahb_slave_monitor.sv(30) @ 0: uvm_test_top.tb.env.slave_agent.monitor [ahb_slave_monitor] start of simulation for uvm_test_top.tb.env.slave_agent.monitor
# UVM_INFO .\TB\sv\ahb_slave_agent.sv(48) @ 0: uvm_test_top.tb.env.slave_agent [ahb_slave_agent] start of simulation for uvm_test_top.tb.env.slave_agent
# UVM_INFO .\TB\sv\ahb_env.sv(34) @ 0: uvm_test_top.tb.env [ahb_env] start of simulation for uvm_test_top.tb.env
# UVM_INFO .\TB\tb\ahb_tb.sv(22) @ 0: uvm_test_top.tb [ahb_tb] start of simulation for uvm_test_top.tb
# UVM_INFO .\TB\tb\ahb_test_lib.sv(34) @ 0: uvm_test_top [ahb_master_wrap16_test] Run Phase of Test is being executed!
# UVM_INFO .\TB\tb\ahb_test_lib.sv(37) @ 0: uvm_test_top [ahb_master_wrap16_test] Raise objection in run phase
# UVM_INFO .\TB\tb\ahb_test_lib.sv(39) @ 0: uvm_test_top [ahb_master_wrap16_test] Drop objection in run phase
# UVM_INFO .\TB\tb\ahb_tb.sv(26) @ 0: uvm_test_top.tb [ahb_tb] Testbench Run Phase is begin executed!
# UVM_INFO C:/questasim64_10.7c/verilog_src/uvm-1.1d/src/seq/uvm_sequencer_base.svh(1390) @ 0: uvm_test_top.tb.env.master_agent.sequencer [PHASESEQ] Starting default sequence 'ahb_master_wrap16_sequences' for phase 'run'
# UVM_INFO .\TB\sv\ahb_master_driver.sv(32) @ 0: uvm_test_top.tb.env.master_agent.driver [ahb_master_driver] Driver is running
# UVM_INFO .\TB\sv\ahb_master_sequences.sv(28) @ 0: uvm_test_top.tb.env.master_agent.sequencer@@ahb_master_wrap16_sequences [ahb_master_wrap16_sequences] raise objection
# UVM_INFO .\TB\sv\ahb_master_sequences.sv(206) @ 0: uvm_test_top.tb.env.master_agent.sequencer@@ahb_master_wrap16_sequences [ahb_master_wrap16_sequences] Executing ahb_master_wrap16_sequences
# UVM_INFO C:/questasim64_10.7c/verilog_src/uvm-1.1d/src/seq/uvm_sequencer_base.svh(1384) @ 0: uvm_test_top.tb.env.master_agent.sequencer [PHASESEQ] No default phase sequence for phase 'pre_reset'
# UVM_INFO C:/questasim64_10.7c/verilog_src/uvm-1.1d/src/seq/uvm_sequencer_base.svh(1384) @ 0: uvm_test_top.tb.env.master_agent.sequencer [PHASESEQ] No default phase sequence for phase 'reset'
# UVM_INFO C:/questasim64_10.7c/verilog_src/uvm-1.1d/src/seq/uvm_sequencer_base.svh(1384) @ 0: uvm_test_top.tb.env.master_agent.sequencer [PHASESEQ] No default phase sequence for phase 'post_reset'
# UVM_INFO C:/questasim64_10.7c/verilog_src/uvm-1.1d/src/seq/uvm_sequencer_base.svh(1384) @ 0: uvm_test_top.tb.env.master_agent.sequencer [PHASESEQ] No default phase sequence for phase 'pre_configure'
# UVM_INFO C:/questasim64_10.7c/verilog_src/uvm-1.1d/src/seq/uvm_sequencer_base.svh(1384) @ 0: uvm_test_top.tb.env.master_agent.sequencer [PHASESEQ] No default phase sequence for phase 'configure'
# UVM_INFO C:/questasim64_10.7c/verilog_src/uvm-1.1d/src/seq/uvm_sequencer_base.svh(1384) @ 0: uvm_test_top.tb.env.master_agent.sequencer [PHASESEQ] No default phase sequence for phase 'post_configure'
# UVM_INFO C:/questasim64_10.7c/verilog_src/uvm-1.1d/src/seq/uvm_sequencer_base.svh(1384) @ 0: uvm_test_top.tb.env.master_agent.sequencer [PHASESEQ] No default phase sequence for phase 'pre_main'
# UVM_INFO C:/questasim64_10.7c/verilog_src/uvm-1.1d/src/seq/uvm_sequencer_base.svh(1384) @ 0: uvm_test_top.tb.env.master_agent.sequencer [PHASESEQ] No default phase sequence for phase 'main'
# UVM_INFO C:/questasim64_10.7c/verilog_src/uvm-1.1d/src/seq/uvm_sequencer_base.svh(1384) @ 0: uvm_test_top.tb.env.master_agent.sequencer [PHASESEQ] No default phase sequence for phase 'post_main'
# UVM_INFO C:/questasim64_10.7c/verilog_src/uvm-1.1d/src/seq/uvm_sequencer_base.svh(1384) @ 0: uvm_test_top.tb.env.master_agent.sequencer [PHASESEQ] No default phase sequence for phase 'pre_shutdown'
# UVM_INFO C:/questasim64_10.7c/verilog_src/uvm-1.1d/src/seq/uvm_sequencer_base.svh(1384) @ 0: uvm_test_top.tb.env.master_agent.sequencer [PHASESEQ] No default phase sequence for phase 'shutdown'
# UVM_INFO C:/questasim64_10.7c/verilog_src/uvm-1.1d/src/seq/uvm_sequencer_base.svh(1384) @ 0: uvm_test_top.tb.env.master_agent.sequencer [PHASESEQ] No default phase sequence for phase 'post_shutdown'
# UVM_INFO .\TB\sv\ahb_slave_monitor.sv(37) @ 25: uvm_test_top.tb.env.slave_agent.monitor [ahb_slave_monitor] Detected Reset Done
# UVM_INFO .\TB\sv\ahb_master_monitor.sv(37) @ 25: uvm_test_top.tb.env.master_agent.monitor [ahb_master_monitor] Detected Reset Done
# UVM_INFO .\TB\sv\ahb_master_driver.sv(37) @ 25: uvm_test_top.tb.env.master_agent.driver [ahb_master_driver] Detected Reset Done
# UVM_INFO .\TB\sv\ahb_master_driver.sv(50) @ 25: uvm_test_top.tb.env.master_agent.driver [ahb_master_driver] Sending Packet :
# -------------------------------------------------------------------------------------------------------------------------------------
# Name                           Type                      Size  Value                                                                 
# -------------------------------------------------------------------------------------------------------------------------------------
# req                            ahb_master_sequence_item  -     @720                                                                  
#   i_addr                       integral                  32    'h4a4                                                                 
#   i_data                       integral                  32    'hc48cf4e8                                                            
#   i_burst_type                 burst_t                   3     WRAP16                                                                
#   i_data_size                  hsize_t                   3     HSIZE_WORD                                                            
#   haddr                        integral                  32    'h0xxxxxxxx                                                           
#   i_write                      integral                  1     'h0X                                                                  
#   i_wrap_en                    integral                  1     'h0X                                                                  
#   i_busy                       integral                  1     'h0X                                                                  
#   begin_time                   time                      64    25                                                                    
#   depth                        int                       32    'd2                                                                   
#   parent sequence (name)       string                    27    ahb_master_wrap16_sequences                                           
#   parent sequence (full name)  string                    70    uvm_test_top.tb.env.master_agent.sequencer.ahb_master_wrap16_sequences
#   sequencer                    string                    42    uvm_test_top.tb.env.master_agent.sequencer                            
# -------------------------------------------------------------------------------------------------------------------------------------
# 
# [COVER] OKAY COMPLETE observed
# [COVER] OKAY COMPLETE observed
# [COVER] OKAY COMPLETE observed
# [COVER] OKAY COMPLETE observed
# Slave First time Sample
# UVM_INFO .\TB\sv\ahb_slave_monitor.sv(84) @ 65: uvm_test_top.tb.env.slave_agent.monitor [ahb_slave_monitor] Packet Collected :
# ------------------------------------------------------------------
# Name                     Type                     Size  Value     
# ------------------------------------------------------------------
# ahb_slave_sequence_item  ahb_slave_sequence_item  -     @748      
#   haddr                  integral                 32    'h4a4     
#   hwrite                 integral                 1     'h1       
#   hburst                 burst_t                  3     WRAP16    
#   hsize                  hsize_t                  3     HSIZE_WORD
#   htrans                 htrans_t                 2     NONSEQ    
#   hwdata                 integral                 32    'hc48cf4e8
#   hrdata                 integral                 32    'h0       
#   hready                 integral                 1     'h0X      
#   hresp                  integral                 1     'h0       
# ------------------------------------------------------------------
# 
# Master First time Sample
# UVM_INFO .\TB\sv\ahb_master_monitor.sv(74) @ 65: uvm_test_top.tb.env.master_agent.monitor [ahb_master_monitor] Packet Collected :
# --------------------------------------------------------------------
# Name                      Type                      Size  Value     
# --------------------------------------------------------------------
# ahb_master_sequence_item  ahb_master_sequence_item  -     @752      
#   i_addr                  integral                  32    'h0       
#   i_data                  integral                  32    'hc48cf4e8
#   i_burst_type            burst_t                   3     WRAP16    
#   i_data_size             hsize_t                   3     HSIZE_WORD
#   haddr                   integral                  32    'h4a4     
#   i_write                 integral                  1     'h1       
#   i_wrap_en               integral                  1     'h0X      
#   i_busy                  integral                  1     'h0X      
# --------------------------------------------------------------------
# 
# [COVER] OKAY COMPLETE observed
# UVM_INFO .\TB\sv\ahb_master_monitor.sv(74) @ 75: uvm_test_top.tb.env.master_agent.monitor [ahb_master_monitor] Packet Collected :
# --------------------------------------------------------------------
# Name                      Type                      Size  Value     
# --------------------------------------------------------------------
# ahb_master_sequence_item  ahb_master_sequence_item  -     @769      
#   i_addr                  integral                  32    'h0       
#   i_data                  integral                  32    'hc48cf4e9
#   i_burst_type            burst_t                   3     WRAP16    
#   i_data_size             hsize_t                   3     HSIZE_WORD
#   haddr                   integral                  32    'h4a8     
#   i_write                 integral                  1     'h1       
#   i_wrap_en               integral                  1     'h0X      
#   i_busy                  integral                  1     'h0X      
# --------------------------------------------------------------------
# 
# UVM_INFO .\TB\sv\ahb_slave_monitor.sv(84) @ 75: uvm_test_top.tb.env.slave_agent.monitor [ahb_slave_monitor] Packet Collected :
# ------------------------------------------------------------------
# Name                     Type                     Size  Value     
# ------------------------------------------------------------------
# ahb_slave_sequence_item  ahb_slave_sequence_item  -     @761      
#   haddr                  integral                 32    'h4a8     
#   hwrite                 integral                 1     'h1       
#   hburst                 burst_t                  3     WRAP16    
#   hsize                  hsize_t                  3     HSIZE_WORD
#   htrans                 htrans_t                 2     SEQ       
#   hwdata                 integral                 32    'hc48cf4e9
#   hrdata                 integral                 32    'h0       
#   hready                 integral                 1     'h0X      
#   hresp                  integral                 1     'h0       
# ------------------------------------------------------------------
# 
# [COVER] OKAY COMPLETE observed
# UVM_INFO .\TB\sv\ahb_slave_monitor.sv(84) @ 85: uvm_test_top.tb.env.slave_agent.monitor [ahb_slave_monitor] Packet Collected :
# ------------------------------------------------------------------
# Name                     Type                     Size  Value     
# ------------------------------------------------------------------
# ahb_slave_sequence_item  ahb_slave_sequence_item  -     @785      
#   haddr                  integral                 32    'h4ac     
#   hwrite                 integral                 1     'h1       
#   hburst                 burst_t                  3     WRAP16    
#   hsize                  hsize_t                  3     HSIZE_WORD
#   htrans                 htrans_t                 2     SEQ       
#   hwdata                 integral                 32    'hc48cf4ea
#   hrdata                 integral                 32    'h0       
#   hready                 integral                 1     'h0X      
#   hresp                  integral                 1     'h0       
# ------------------------------------------------------------------
# 
# UVM_INFO .\TB\sv\ahb_master_monitor.sv(74) @ 85: uvm_test_top.tb.env.master_agent.monitor [ahb_master_monitor] Packet Collected :
# --------------------------------------------------------------------
# Name                      Type                      Size  Value     
# --------------------------------------------------------------------
# ahb_master_sequence_item  ahb_master_sequence_item  -     @777      
#   i_addr                  integral                  32    'h0       
#   i_data                  integral                  32    'hc48cf4ea
#   i_burst_type            burst_t                   3     WRAP16    
#   i_data_size             hsize_t                   3     HSIZE_WORD
#   haddr                   integral                  32    'h4ac     
#   i_write                 integral                  1     'h1       
#   i_wrap_en               integral                  1     'h0X      
#   i_busy                  integral                  1     'h0X      
# --------------------------------------------------------------------
# 
# [COVER] OKAY COMPLETE observed
# UVM_INFO .\TB\sv\ahb_master_monitor.sv(74) @ 95: uvm_test_top.tb.env.master_agent.monitor [ahb_master_monitor] Packet Collected :
# --------------------------------------------------------------------
# Name                      Type                      Size  Value     
# --------------------------------------------------------------------
# ahb_master_sequence_item  ahb_master_sequence_item  -     @801      
#   i_addr                  integral                  32    'h0       
#   i_data                  integral                  32    'hc48cf4eb
#   i_burst_type            burst_t                   3     WRAP16    
#   i_data_size             hsize_t                   3     HSIZE_WORD
#   haddr                   integral                  32    'h4b0     
#   i_write                 integral                  1     'h1       
#   i_wrap_en               integral                  1     'h0X      
#   i_busy                  integral                  1     'h0X      
# --------------------------------------------------------------------
# 
# UVM_INFO .\TB\sv\ahb_slave_monitor.sv(84) @ 95: uvm_test_top.tb.env.slave_agent.monitor [ahb_slave_monitor] Packet Collected :
# ------------------------------------------------------------------
# Name                     Type                     Size  Value     
# ------------------------------------------------------------------
# ahb_slave_sequence_item  ahb_slave_sequence_item  -     @793      
#   haddr                  integral                 32    'h4b0     
#   hwrite                 integral                 1     'h1       
#   hburst                 burst_t                  3     WRAP16    
#   hsize                  hsize_t                  3     HSIZE_WORD
#   htrans                 htrans_t                 2     SEQ       
#   hwdata                 integral                 32    'hc48cf4eb
#   hrdata                 integral                 32    'h0       
#   hready                 integral                 1     'h0X      
#   hresp                  integral                 1     'h0       
# ------------------------------------------------------------------
# 
# [COVER] OKAY COMPLETE observed
# UVM_INFO .\TB\sv\ahb_slave_monitor.sv(84) @ 105: uvm_test_top.tb.env.slave_agent.monitor [ahb_slave_monitor] Packet Collected :
# ------------------------------------------------------------------
# Name                     Type                     Size  Value     
# ------------------------------------------------------------------
# ahb_slave_sequence_item  ahb_slave_sequence_item  -     @817      
#   haddr                  integral                 32    'h4b4     
#   hwrite                 integral                 1     'h1       
#   hburst                 burst_t                  3     WRAP16    
#   hsize                  hsize_t                  3     HSIZE_WORD
#   htrans                 htrans_t                 2     SEQ       
#   hwdata                 integral                 32    'hc48cf4ec
#   hrdata                 integral                 32    'h0       
#   hready                 integral                 1     'h0X      
#   hresp                  integral                 1     'h0       
# ------------------------------------------------------------------
# 
# UVM_INFO .\TB\sv\ahb_master_monitor.sv(74) @ 105: uvm_test_top.tb.env.master_agent.monitor [ahb_master_monitor] Packet Collected :
# --------------------------------------------------------------------
# Name                      Type                      Size  Value     
# --------------------------------------------------------------------
# ahb_master_sequence_item  ahb_master_sequence_item  -     @809      
#   i_addr                  integral                  32    'h0       
#   i_data                  integral                  32    'hc48cf4ec
#   i_burst_type            burst_t                   3     WRAP16    
#   i_data_size             hsize_t                   3     HSIZE_WORD
#   haddr                   integral                  32    'h4b4     
#   i_write                 integral                  1     'h1       
#   i_wrap_en               integral                  1     'h0X      
#   i_busy                  integral                  1     'h0X      
# --------------------------------------------------------------------
# 
# [COVER] OKAY COMPLETE observed
# UVM_INFO .\TB\sv\ahb_master_monitor.sv(74) @ 115: uvm_test_top.tb.env.master_agent.monitor [ahb_master_monitor] Packet Collected :
# --------------------------------------------------------------------
# Name                      Type                      Size  Value     
# --------------------------------------------------------------------
# ahb_master_sequence_item  ahb_master_sequence_item  -     @833      
#   i_addr                  integral                  32    'h0       
#   i_data                  integral                  32    'hc48cf4ed
#   i_burst_type            burst_t                   3     WRAP16    
#   i_data_size             hsize_t                   3     HSIZE_WORD
#   haddr                   integral                  32    'h4b8     
#   i_write                 integral                  1     'h1       
#   i_wrap_en               integral                  1     'h0X      
#   i_busy                  integral                  1     'h0X      
# --------------------------------------------------------------------
# 
# UVM_INFO .\TB\sv\ahb_slave_monitor.sv(84) @ 115: uvm_test_top.tb.env.slave_agent.monitor [ahb_slave_monitor] Packet Collected :
# ------------------------------------------------------------------
# Name                     Type                     Size  Value     
# ------------------------------------------------------------------
# ahb_slave_sequence_item  ahb_slave_sequence_item  -     @825      
#   haddr                  integral                 32    'h4b8     
#   hwrite                 integral                 1     'h1       
#   hburst                 burst_t                  3     WRAP16    
#   hsize                  hsize_t                  3     HSIZE_WORD
#   htrans                 htrans_t                 2     SEQ       
#   hwdata                 integral                 32    'hc48cf4ed
#   hrdata                 integral                 32    'h0       
#   hready                 integral                 1     'h0X      
#   hresp                  integral                 1     'h0       
# ------------------------------------------------------------------
# 
# [COVER] OKAY COMPLETE observed
# UVM_INFO .\TB\sv\ahb_slave_monitor.sv(84) @ 125: uvm_test_top.tb.env.slave_agent.monitor [ahb_slave_monitor] Packet Collected :
# ------------------------------------------------------------------
# Name                     Type                     Size  Value     
# ------------------------------------------------------------------
# ahb_slave_sequence_item  ahb_slave_sequence_item  -     @849      
#   haddr                  integral                 32    'h4bc     
#   hwrite                 integral                 1     'h1       
#   hburst                 burst_t                  3     WRAP16    
#   hsize                  hsize_t                  3     HSIZE_WORD
#   htrans                 htrans_t                 2     SEQ       
#   hwdata                 integral                 32    'hc48cf4ee
#   hrdata                 integral                 32    'h0       
#   hready                 integral                 1     'h0X      
#   hresp                  integral                 1     'h0       
# ------------------------------------------------------------------
# 
# UVM_INFO .\TB\sv\ahb_master_monitor.sv(74) @ 125: uvm_test_top.tb.env.master_agent.monitor [ahb_master_monitor] Packet Collected :
# --------------------------------------------------------------------
# Name                      Type                      Size  Value     
# --------------------------------------------------------------------
# ahb_master_sequence_item  ahb_master_sequence_item  -     @841      
#   i_addr                  integral                  32    'h0       
#   i_data                  integral                  32    'hc48cf4ee
#   i_burst_type            burst_t                   3     WRAP16    
#   i_data_size             hsize_t                   3     HSIZE_WORD
#   haddr                   integral                  32    'h4bc     
#   i_write                 integral                  1     'h1       
#   i_wrap_en               integral                  1     'h0X      
#   i_busy                  integral                  1     'h0X      
# --------------------------------------------------------------------
# 
# [COVER] OKAY COMPLETE observed
# UVM_INFO .\TB\sv\ahb_master_monitor.sv(74) @ 135: uvm_test_top.tb.env.master_agent.monitor [ahb_master_monitor] Packet Collected :
# --------------------------------------------------------------------
# Name                      Type                      Size  Value     
# --------------------------------------------------------------------
# ahb_master_sequence_item  ahb_master_sequence_item  -     @865      
#   i_addr                  integral                  32    'h0       
#   i_data                  integral                  32    'hc48cf4ef
#   i_burst_type            burst_t                   3     WRAP16    
#   i_data_size             hsize_t                   3     HSIZE_WORD
#   haddr                   integral                  32    'h480     
#   i_write                 integral                  1     'h1       
#   i_wrap_en               integral                  1     'h0X      
#   i_busy                  integral                  1     'h0X      
# --------------------------------------------------------------------
# 
# UVM_INFO .\TB\sv\ahb_slave_monitor.sv(84) @ 135: uvm_test_top.tb.env.slave_agent.monitor [ahb_slave_monitor] Packet Collected :
# ------------------------------------------------------------------
# Name                     Type                     Size  Value     
# ------------------------------------------------------------------
# ahb_slave_sequence_item  ahb_slave_sequence_item  -     @857      
#   haddr                  integral                 32    'h480     
#   hwrite                 integral                 1     'h1       
#   hburst                 burst_t                  3     WRAP16    
#   hsize                  hsize_t                  3     HSIZE_WORD
#   htrans                 htrans_t                 2     SEQ       
#   hwdata                 integral                 32    'hc48cf4ef
#   hrdata                 integral                 32    'h0       
#   hready                 integral                 1     'h0X      
#   hresp                  integral                 1     'h0       
# ------------------------------------------------------------------
# 
# [COVER] OKAY COMPLETE observed
# UVM_INFO .\TB\sv\ahb_slave_monitor.sv(84) @ 145: uvm_test_top.tb.env.slave_agent.monitor [ahb_slave_monitor] Packet Collected :
# ------------------------------------------------------------------
# Name                     Type                     Size  Value     
# ------------------------------------------------------------------
# ahb_slave_sequence_item  ahb_slave_sequence_item  -     @881      
#   haddr                  integral                 32    'h484     
#   hwrite                 integral                 1     'h1       
#   hburst                 burst_t                  3     WRAP16    
#   hsize                  hsize_t                  3     HSIZE_WORD
#   htrans                 htrans_t                 2     SEQ       
#   hwdata                 integral                 32    'hc48cf4f0
#   hrdata                 integral                 32    'h0       
#   hready                 integral                 1     'h0X      
#   hresp                  integral                 1     'h0       
# ------------------------------------------------------------------
# 
# UVM_INFO .\TB\sv\ahb_master_monitor.sv(74) @ 145: uvm_test_top.tb.env.master_agent.monitor [ahb_master_monitor] Packet Collected :
# --------------------------------------------------------------------
# Name                      Type                      Size  Value     
# --------------------------------------------------------------------
# ahb_master_sequence_item  ahb_master_sequence_item  -     @873      
#   i_addr                  integral                  32    'h0       
#   i_data                  integral                  32    'hc48cf4f0
#   i_burst_type            burst_t                   3     WRAP16    
#   i_data_size             hsize_t                   3     HSIZE_WORD
#   haddr                   integral                  32    'h484     
#   i_write                 integral                  1     'h1       
#   i_wrap_en               integral                  1     'h0X      
#   i_busy                  integral                  1     'h0X      
# --------------------------------------------------------------------
# 
# [COVER] OKAY COMPLETE observed
# UVM_INFO .\TB\sv\ahb_master_monitor.sv(74) @ 155: uvm_test_top.tb.env.master_agent.monitor [ahb_master_monitor] Packet Collected :
# --------------------------------------------------------------------
# Name                      Type                      Size  Value     
# --------------------------------------------------------------------
# ahb_master_sequence_item  ahb_master_sequence_item  -     @897      
#   i_addr                  integral                  32    'h0       
#   i_data                  integral                  32    'hc48cf4f1
#   i_burst_type            burst_t                   3     WRAP16    
#   i_data_size             hsize_t                   3     HSIZE_WORD
#   haddr                   integral                  32    'h488     
#   i_write                 integral                  1     'h1       
#   i_wrap_en               integral                  1     'h0X      
#   i_busy                  integral                  1     'h0X      
# --------------------------------------------------------------------
# 
# UVM_INFO .\TB\sv\ahb_slave_monitor.sv(84) @ 155: uvm_test_top.tb.env.slave_agent.monitor [ahb_slave_monitor] Packet Collected :
# ------------------------------------------------------------------
# Name                     Type                     Size  Value     
# ------------------------------------------------------------------
# ahb_slave_sequence_item  ahb_slave_sequence_item  -     @889      
#   haddr                  integral                 32    'h488     
#   hwrite                 integral                 1     'h1       
#   hburst                 burst_t                  3     WRAP16    
#   hsize                  hsize_t                  3     HSIZE_WORD
#   htrans                 htrans_t                 2     SEQ       
#   hwdata                 integral                 32    'hc48cf4f1
#   hrdata                 integral                 32    'h0       
#   hready                 integral                 1     'h0X      
#   hresp                  integral                 1     'h0       
# ------------------------------------------------------------------
# 
# [COVER] OKAY COMPLETE observed
# UVM_INFO .\TB\sv\ahb_slave_monitor.sv(84) @ 165: uvm_test_top.tb.env.slave_agent.monitor [ahb_slave_monitor] Packet Collected :
# ------------------------------------------------------------------
# Name                     Type                     Size  Value     
# ------------------------------------------------------------------
# ahb_slave_sequence_item  ahb_slave_sequence_item  -     @913      
#   haddr                  integral                 32    'h48c     
#   hwrite                 integral                 1     'h1       
#   hburst                 burst_t                  3     WRAP16    
#   hsize                  hsize_t                  3     HSIZE_WORD
#   htrans                 htrans_t                 2     SEQ       
#   hwdata                 integral                 32    'hc48cf4f2
#   hrdata                 integral                 32    'h0       
#   hready                 integral                 1     'h0X      
#   hresp                  integral                 1     'h0       
# ------------------------------------------------------------------
# 
# UVM_INFO .\TB\sv\ahb_master_monitor.sv(74) @ 165: uvm_test_top.tb.env.master_agent.monitor [ahb_master_monitor] Packet Collected :
# --------------------------------------------------------------------
# Name                      Type                      Size  Value     
# --------------------------------------------------------------------
# ahb_master_sequence_item  ahb_master_sequence_item  -     @905      
#   i_addr                  integral                  32    'h0       
#   i_data                  integral                  32    'hc48cf4f2
#   i_burst_type            burst_t                   3     WRAP16    
#   i_data_size             hsize_t                   3     HSIZE_WORD
#   haddr                   integral                  32    'h48c     
#   i_write                 integral                  1     'h1       
#   i_wrap_en               integral                  1     'h0X      
#   i_busy                  integral                  1     'h0X      
# --------------------------------------------------------------------
# 
# [COVER] OKAY COMPLETE observed
# UVM_INFO .\TB\sv\ahb_master_monitor.sv(74) @ 175: uvm_test_top.tb.env.master_agent.monitor [ahb_master_monitor] Packet Collected :
# --------------------------------------------------------------------
# Name                      Type                      Size  Value     
# --------------------------------------------------------------------
# ahb_master_sequence_item  ahb_master_sequence_item  -     @929      
#   i_addr                  integral                  32    'h0       
#   i_data                  integral                  32    'hc48cf4f3
#   i_burst_type            burst_t                   3     WRAP16    
#   i_data_size             hsize_t                   3     HSIZE_WORD
#   haddr                   integral                  32    'h490     
#   i_write                 integral                  1     'h1       
#   i_wrap_en               integral                  1     'h0X      
#   i_busy                  integral                  1     'h0X      
# --------------------------------------------------------------------
# 
# UVM_INFO .\TB\sv\ahb_slave_monitor.sv(84) @ 175: uvm_test_top.tb.env.slave_agent.monitor [ahb_slave_monitor] Packet Collected :
# ------------------------------------------------------------------
# Name                     Type                     Size  Value     
# ------------------------------------------------------------------
# ahb_slave_sequence_item  ahb_slave_sequence_item  -     @921      
#   haddr                  integral                 32    'h490     
#   hwrite                 integral                 1     'h1       
#   hburst                 burst_t                  3     WRAP16    
#   hsize                  hsize_t                  3     HSIZE_WORD
#   htrans                 htrans_t                 2     SEQ       
#   hwdata                 integral                 32    'hc48cf4f3
#   hrdata                 integral                 32    'h0       
#   hready                 integral                 1     'h0X      
#   hresp                  integral                 1     'h0       
# ------------------------------------------------------------------
# 
# [COVER] OKAY COMPLETE observed
# UVM_INFO .\TB\sv\ahb_slave_monitor.sv(84) @ 185: uvm_test_top.tb.env.slave_agent.monitor [ahb_slave_monitor] Packet Collected :
# ------------------------------------------------------------------
# Name                     Type                     Size  Value     
# ------------------------------------------------------------------
# ahb_slave_sequence_item  ahb_slave_sequence_item  -     @945      
#   haddr                  integral                 32    'h494     
#   hwrite                 integral                 1     'h1       
#   hburst                 burst_t                  3     WRAP16    
#   hsize                  hsize_t                  3     HSIZE_WORD
#   htrans                 htrans_t                 2     SEQ       
#   hwdata                 integral                 32    'hc48cf4f4
#   hrdata                 integral                 32    'h0       
#   hready                 integral                 1     'h0X      
#   hresp                  integral                 1     'h0       
# ------------------------------------------------------------------
# 
# UVM_INFO .\TB\sv\ahb_master_monitor.sv(74) @ 185: uvm_test_top.tb.env.master_agent.monitor [ahb_master_monitor] Packet Collected :
# --------------------------------------------------------------------
# Name                      Type                      Size  Value     
# --------------------------------------------------------------------
# ahb_master_sequence_item  ahb_master_sequence_item  -     @937      
#   i_addr                  integral                  32    'h0       
#   i_data                  integral                  32    'hc48cf4f4
#   i_burst_type            burst_t                   3     WRAP16    
#   i_data_size             hsize_t                   3     HSIZE_WORD
#   haddr                   integral                  32    'h494     
#   i_write                 integral                  1     'h1       
#   i_wrap_en               integral                  1     'h0X      
#   i_busy                  integral                  1     'h0X      
# --------------------------------------------------------------------
# 
# [COVER] OKAY COMPLETE observed
# UVM_INFO .\TB\sv\ahb_master_monitor.sv(74) @ 195: uvm_test_top.tb.env.master_agent.monitor [ahb_master_monitor] Packet Collected :
# --------------------------------------------------------------------
# Name                      Type                      Size  Value     
# --------------------------------------------------------------------
# ahb_master_sequence_item  ahb_master_sequence_item  -     @961      
#   i_addr                  integral                  32    'h0       
#   i_data                  integral                  32    'hc48cf4f5
#   i_burst_type            burst_t                   3     WRAP16    
#   i_data_size             hsize_t                   3     HSIZE_WORD
#   haddr                   integral                  32    'h498     
#   i_write                 integral                  1     'h1       
#   i_wrap_en               integral                  1     'h0X      
#   i_busy                  integral                  1     'h0X      
# --------------------------------------------------------------------
# 
# UVM_INFO .\TB\sv\ahb_slave_monitor.sv(84) @ 195: uvm_test_top.tb.env.slave_agent.monitor [ahb_slave_monitor] Packet Collected :
# ------------------------------------------------------------------
# Name                     Type                     Size  Value     
# ------------------------------------------------------------------
# ahb_slave_sequence_item  ahb_slave_sequence_item  -     @953      
#   haddr                  integral                 32    'h498     
#   hwrite                 integral                 1     'h1       
#   hburst                 burst_t                  3     WRAP16    
#   hsize                  hsize_t                  3     HSIZE_WORD
#   htrans                 htrans_t                 2     SEQ       
#   hwdata                 integral                 32    'hc48cf4f5
#   hrdata                 integral                 32    'h0       
#   hready                 integral                 1     'h0X      
#   hresp                  integral                 1     'h0       
# ------------------------------------------------------------------
# 
# [COVER] OKAY COMPLETE observed
# UVM_INFO .\TB\sv\ahb_slave_monitor.sv(84) @ 205: uvm_test_top.tb.env.slave_agent.monitor [ahb_slave_monitor] Packet Collected :
# ------------------------------------------------------------------
# Name                     Type                     Size  Value     
# ------------------------------------------------------------------
# ahb_slave_sequence_item  ahb_slave_sequence_item  -     @977      
#   haddr                  integral                 32    'h49c     
#   hwrite                 integral                 1     'h1       
#   hburst                 burst_t                  3     WRAP16    
#   hsize                  hsize_t                  3     HSIZE_WORD
#   htrans                 htrans_t                 2     SEQ       
#   hwdata                 integral                 32    'hc48cf4f6
#   hrdata                 integral                 32    'h0       
#   hready                 integral                 1     'h0X      
#   hresp                  integral                 1     'h0       
# ------------------------------------------------------------------
# 
# UVM_INFO .\TB\sv\ahb_master_monitor.sv(74) @ 205: uvm_test_top.tb.env.master_agent.monitor [ahb_master_monitor] Packet Collected :
# --------------------------------------------------------------------
# Name                      Type                      Size  Value     
# --------------------------------------------------------------------
# ahb_master_sequence_item  ahb_master_sequence_item  -     @969      
#   i_addr                  integral                  32    'h0       
#   i_data                  integral                  32    'hc48cf4f6
#   i_burst_type            burst_t                   3     WRAP16    
#   i_data_size             hsize_t                   3     HSIZE_WORD
#   haddr                   integral                  32    'h49c     
#   i_write                 integral                  1     'h1       
#   i_wrap_en               integral                  1     'h0X      
#   i_busy                  integral                  1     'h0X      
# --------------------------------------------------------------------
# 
# [COVER] OKAY COMPLETE observed
# UVM_INFO .\TB\sv\ahb_master_monitor.sv(74) @ 215: uvm_test_top.tb.env.master_agent.monitor [ahb_master_monitor] Packet Collected :
# --------------------------------------------------------------------
# Name                      Type                      Size  Value     
# --------------------------------------------------------------------
# ahb_master_sequence_item  ahb_master_sequence_item  -     @993      
#   i_addr                  integral                  32    'h0       
#   i_data                  integral                  32    'hc48cf4f7
#   i_burst_type            burst_t                   3     WRAP16    
#   i_data_size             hsize_t                   3     HSIZE_WORD
#   haddr                   integral                  32    'h4a0     
#   i_write                 integral                  1     'h1       
#   i_wrap_en               integral                  1     'h0X      
#   i_busy                  integral                  1     'h0X      
# --------------------------------------------------------------------
# 
# UVM_INFO .\TB\sv\ahb_slave_monitor.sv(84) @ 215: uvm_test_top.tb.env.slave_agent.monitor [ahb_slave_monitor] Packet Collected :
# ------------------------------------------------------------------
# Name                     Type                     Size  Value     
# ------------------------------------------------------------------
# ahb_slave_sequence_item  ahb_slave_sequence_item  -     @985      
#   haddr                  integral                 32    'h4a0     
#   hwrite                 integral                 1     'h1       
#   hburst                 burst_t                  3     WRAP16    
#   hsize                  hsize_t                  3     HSIZE_WORD
#   htrans                 htrans_t                 2     SEQ       
#   hwdata                 integral                 32    'hc48cf4f7
#   hrdata                 integral                 32    'h0       
#   hready                 integral                 1     'h0X      
#   hresp                  integral                 1     'h0       
# ------------------------------------------------------------------
# 
# [COVER] OKAY COMPLETE observed
# UVM_INFO .\TB\sv\ahb_slave_monitor.sv(84) @ 225: uvm_test_top.tb.env.slave_agent.monitor [ahb_slave_monitor] Packet Collected :
# ------------------------------------------------------------------
# Name                     Type                     Size  Value     
# ------------------------------------------------------------------
# ahb_slave_sequence_item  ahb_slave_sequence_item  -     @1009     
#   haddr                  integral                 32    'h4a4     
#   hwrite                 integral                 1     'h1       
#   hburst                 burst_t                  3     WRAP16    
#   hsize                  hsize_t                  3     HSIZE_WORD
#   htrans                 htrans_t                 2     SEQ       
#   hwdata                 integral                 32    'hc48cf4f7
#   hrdata                 integral                 32    'h0       
#   hready                 integral                 1     'h0X      
#   hresp                  integral                 1     'h0       
# ------------------------------------------------------------------
# 
# UVM_INFO .\TB\sv\ahb_master_monitor.sv(74) @ 225: uvm_test_top.tb.env.master_agent.monitor [ahb_master_monitor] Packet Collected :
# --------------------------------------------------------------------
# Name                      Type                      Size  Value     
# --------------------------------------------------------------------
# ahb_master_sequence_item  ahb_master_sequence_item  -     @1001     
#   i_addr                  integral                  32    'h0       
#   i_data                  integral                  32    'hc48cf4f7
#   i_burst_type            burst_t                   3     WRAP16    
#   i_data_size             hsize_t                   3     HSIZE_WORD
#   haddr                   integral                  32    'h4a4     
#   i_write                 integral                  1     'h1       
#   i_wrap_en               integral                  1     'h0X      
#   i_busy                  integral                  1     'h0X      
# --------------------------------------------------------------------
# 
# [COVER] OKAY COMPLETE observed
# UVM_INFO .\TB\sv\ahb_master_monitor.sv(74) @ 235: uvm_test_top.tb.env.master_agent.monitor [ahb_master_monitor] Packet Collected :
# --------------------------------------------------------------------
# Name                      Type                      Size  Value     
# --------------------------------------------------------------------
# ahb_master_sequence_item  ahb_master_sequence_item  -     @1025     
#   i_addr                  integral                  32    'h0       
#   i_data                  integral                  32    'hc48cf4f7
#   i_burst_type            burst_t                   3     WRAP16    
#   i_data_size             hsize_t                   3     HSIZE_WORD
#   haddr                   integral                  32    'h4a8     
#   i_write                 integral                  1     'h1       
#   i_wrap_en               integral                  1     'h0X      
#   i_busy                  integral                  1     'h0X      
# --------------------------------------------------------------------
# 
# UVM_INFO .\TB\sv\ahb_slave_monitor.sv(84) @ 235: uvm_test_top.tb.env.slave_agent.monitor [ahb_slave_monitor] Packet Collected :
# ------------------------------------------------------------------
# Name                     Type                     Size  Value     
# ------------------------------------------------------------------
# ahb_slave_sequence_item  ahb_slave_sequence_item  -     @1017     
#   haddr                  integral                 32    'h4a8     
#   hwrite                 integral                 1     'h1       
#   hburst                 burst_t                  3     WRAP16    
#   hsize                  hsize_t                  3     HSIZE_WORD
#   htrans                 htrans_t                 2     SEQ       
#   hwdata                 integral                 32    'hc48cf4f7
#   hrdata                 integral                 32    'h0       
#   hready                 integral                 1     'h0X      
#   hresp                  integral                 1     'h0       
# ------------------------------------------------------------------
# 
# [COVER] OKAY COMPLETE observed
# [COVER] OKAY COMPLETE observed
# Slave First time Sample
# UVM_INFO .\TB\sv\ahb_slave_monitor.sv(84) @ 275: uvm_test_top.tb.env.slave_agent.monitor [ahb_slave_monitor] Packet Collected :
# ------------------------------------------------------------------
# Name                     Type                     Size  Value     
# ------------------------------------------------------------------
# ahb_slave_sequence_item  ahb_slave_sequence_item  -     @1041     
#   haddr                  integral                 32    'h4a4     
#   hwrite                 integral                 1     'h0       
#   hburst                 burst_t                  3     WRAP16    
#   hsize                  hsize_t                  3     HSIZE_WORD
#   htrans                 htrans_t                 2     SEQ       
#   hwdata                 integral                 32    'hc48cf4f7
#   hrdata                 integral                 32    'hc48cf4f7
#   hready                 integral                 1     'h0X      
#   hresp                  integral                 1     'h0       
# ------------------------------------------------------------------
# 
# Master First time Sample
# UVM_INFO .\TB\sv\ahb_master_monitor.sv(74) @ 275: uvm_test_top.tb.env.master_agent.monitor [ahb_master_monitor] Packet Collected :
# --------------------------------------------------------------------
# Name                      Type                      Size  Value     
# --------------------------------------------------------------------
# ahb_master_sequence_item  ahb_master_sequence_item  -     @1033     
#   i_addr                  integral                  32    'h0       
#   i_data                  integral                  32    'hc48cf4f7
#   i_burst_type            burst_t                   3     WRAP16    
#   i_data_size             hsize_t                   3     HSIZE_WORD
#   haddr                   integral                  32    'h4a4     
#   i_write                 integral                  1     'h0       
#   i_wrap_en               integral                  1     'h0X      
#   i_busy                  integral                  1     'h0X      
# --------------------------------------------------------------------
# 
# [COVER] OKAY COMPLETE observed
# UVM_INFO .\TB\sv\ahb_master_monitor.sv(74) @ 285: uvm_test_top.tb.env.master_agent.monitor [ahb_master_monitor] Packet Collected :
# --------------------------------------------------------------------
# Name                      Type                      Size  Value     
# --------------------------------------------------------------------
# ahb_master_sequence_item  ahb_master_sequence_item  -     @1057     
#   i_addr                  integral                  32    'h0       
#   i_data                  integral                  32    'hc48cf4f7
#   i_burst_type            burst_t                   3     WRAP16    
#   i_data_size             hsize_t                   3     HSIZE_WORD
#   haddr                   integral                  32    'h4a8     
#   i_write                 integral                  1     'h0       
#   i_wrap_en               integral                  1     'h0X      
#   i_busy                  integral                  1     'h0X      
# --------------------------------------------------------------------
# 
# UVM_INFO .\TB\sv\ahb_slave_monitor.sv(84) @ 285: uvm_test_top.tb.env.slave_agent.monitor [ahb_slave_monitor] Packet Collected :
# ------------------------------------------------------------------
# Name                     Type                     Size  Value     
# ------------------------------------------------------------------
# ahb_slave_sequence_item  ahb_slave_sequence_item  -     @1049     
#   haddr                  integral                 32    'h4a8     
#   hwrite                 integral                 1     'h0       
#   hburst                 burst_t                  3     WRAP16    
#   hsize                  hsize_t                  3     HSIZE_WORD
#   htrans                 htrans_t                 2     SEQ       
#   hwdata                 integral                 32    'hc48cf4f7
#   hrdata                 integral                 32    'hc48cf4f7
#   hready                 integral                 1     'h0X      
#   hresp                  integral                 1     'h0       
# ------------------------------------------------------------------
# 
# [COVER] OKAY COMPLETE observed
# UVM_INFO .\TB\sv\ahb_slave_monitor.sv(84) @ 295: uvm_test_top.tb.env.slave_agent.monitor [ahb_slave_monitor] Packet Collected :
# ------------------------------------------------------------------
# Name                     Type                     Size  Value     
# ------------------------------------------------------------------
# ahb_slave_sequence_item  ahb_slave_sequence_item  -     @1073     
#   haddr                  integral                 32    'h4ac     
#   hwrite                 integral                 1     'h0       
#   hburst                 burst_t                  3     WRAP16    
#   hsize                  hsize_t                  3     HSIZE_WORD
#   htrans                 htrans_t                 2     SEQ       
#   hwdata                 integral                 32    'hc48cf4f7
#   hrdata                 integral                 32    'hc48cf4ea
#   hready                 integral                 1     'h0X      
#   hresp                  integral                 1     'h0       
# ------------------------------------------------------------------
# 
# UVM_INFO .\TB\sv\ahb_master_monitor.sv(74) @ 295: uvm_test_top.tb.env.master_agent.monitor [ahb_master_monitor] Packet Collected :
# --------------------------------------------------------------------
# Name                      Type                      Size  Value     
# --------------------------------------------------------------------
# ahb_master_sequence_item  ahb_master_sequence_item  -     @1065     
#   i_addr                  integral                  32    'h0       
#   i_data                  integral                  32    'hc48cf4f7
#   i_burst_type            burst_t                   3     WRAP16    
#   i_data_size             hsize_t                   3     HSIZE_WORD
#   haddr                   integral                  32    'h4ac     
#   i_write                 integral                  1     'h0       
#   i_wrap_en               integral                  1     'h0X      
#   i_busy                  integral                  1     'h0X      
# --------------------------------------------------------------------
# 
# [COVER] OKAY COMPLETE observed
# UVM_INFO .\TB\sv\ahb_master_monitor.sv(74) @ 305: uvm_test_top.tb.env.master_agent.monitor [ahb_master_monitor] Packet Collected :
# --------------------------------------------------------------------
# Name                      Type                      Size  Value     
# --------------------------------------------------------------------
# ahb_master_sequence_item  ahb_master_sequence_item  -     @1089     
#   i_addr                  integral                  32    'h0       
#   i_data                  integral                  32    'hc48cf4f7
#   i_burst_type            burst_t                   3     WRAP16    
#   i_data_size             hsize_t                   3     HSIZE_WORD
#   haddr                   integral                  32    'h4b0     
#   i_write                 integral                  1     'h0       
#   i_wrap_en               integral                  1     'h0X      
#   i_busy                  integral                  1     'h0X      
# --------------------------------------------------------------------
# 
# UVM_INFO .\TB\sv\ahb_slave_monitor.sv(84) @ 305: uvm_test_top.tb.env.slave_agent.monitor [ahb_slave_monitor] Packet Collected :
# ------------------------------------------------------------------
# Name                     Type                     Size  Value     
# ------------------------------------------------------------------
# ahb_slave_sequence_item  ahb_slave_sequence_item  -     @1081     
#   haddr                  integral                 32    'h4b0     
#   hwrite                 integral                 1     'h0       
#   hburst                 burst_t                  3     WRAP16    
#   hsize                  hsize_t                  3     HSIZE_WORD
#   htrans                 htrans_t                 2     SEQ       
#   hwdata                 integral                 32    'hc48cf4f7
#   hrdata                 integral                 32    'hc48cf4eb
#   hready                 integral                 1     'h0X      
#   hresp                  integral                 1     'h0       
# ------------------------------------------------------------------
# 
# [COVER] OKAY COMPLETE observed
# UVM_INFO .\TB\sv\ahb_slave_monitor.sv(84) @ 315: uvm_test_top.tb.env.slave_agent.monitor [ahb_slave_monitor] Packet Collected :
# ------------------------------------------------------------------
# Name                     Type                     Size  Value     
# ------------------------------------------------------------------
# ahb_slave_sequence_item  ahb_slave_sequence_item  -     @1105     
#   haddr                  integral                 32    'h4b4     
#   hwrite                 integral                 1     'h0       
#   hburst                 burst_t                  3     WRAP16    
#   hsize                  hsize_t                  3     HSIZE_WORD
#   htrans                 htrans_t                 2     SEQ       
#   hwdata                 integral                 32    'hc48cf4f7
#   hrdata                 integral                 32    'hc48cf4ec
#   hready                 integral                 1     'h0X      
#   hresp                  integral                 1     'h0       
# ------------------------------------------------------------------
# 
# UVM_INFO .\TB\sv\ahb_master_monitor.sv(74) @ 315: uvm_test_top.tb.env.master_agent.monitor [ahb_master_monitor] Packet Collected :
# --------------------------------------------------------------------
# Name                      Type                      Size  Value     
# --------------------------------------------------------------------
# ahb_master_sequence_item  ahb_master_sequence_item  -     @1097     
#   i_addr                  integral                  32    'h0       
#   i_data                  integral                  32    'hc48cf4f7
#   i_burst_type            burst_t                   3     WRAP16    
#   i_data_size             hsize_t                   3     HSIZE_WORD
#   haddr                   integral                  32    'h4b4     
#   i_write                 integral                  1     'h0       
#   i_wrap_en               integral                  1     'h0X      
#   i_busy                  integral                  1     'h0X      
# --------------------------------------------------------------------
# 
# [COVER] OKAY COMPLETE observed
# UVM_INFO .\TB\sv\ahb_master_monitor.sv(74) @ 325: uvm_test_top.tb.env.master_agent.monitor [ahb_master_monitor] Packet Collected :
# --------------------------------------------------------------------
# Name                      Type                      Size  Value     
# --------------------------------------------------------------------
# ahb_master_sequence_item  ahb_master_sequence_item  -     @1121     
#   i_addr                  integral                  32    'h0       
#   i_data                  integral                  32    'hc48cf4f7
#   i_burst_type            burst_t                   3     WRAP16    
#   i_data_size             hsize_t                   3     HSIZE_WORD
#   haddr                   integral                  32    'h4b8     
#   i_write                 integral                  1     'h0       
#   i_wrap_en               integral                  1     'h0X      
#   i_busy                  integral                  1     'h0X      
# --------------------------------------------------------------------
# 
# UVM_INFO .\TB\sv\ahb_slave_monitor.sv(84) @ 325: uvm_test_top.tb.env.slave_agent.monitor [ahb_slave_monitor] Packet Collected :
# ------------------------------------------------------------------
# Name                     Type                     Size  Value     
# ------------------------------------------------------------------
# ahb_slave_sequence_item  ahb_slave_sequence_item  -     @1113     
#   haddr                  integral                 32    'h4b8     
#   hwrite                 integral                 1     'h0       
#   hburst                 burst_t                  3     WRAP16    
#   hsize                  hsize_t                  3     HSIZE_WORD
#   htrans                 htrans_t                 2     SEQ       
#   hwdata                 integral                 32    'hc48cf4f7
#   hrdata                 integral                 32    'hc48cf4ed
#   hready                 integral                 1     'h0X      
#   hresp                  integral                 1     'h0       
# ------------------------------------------------------------------
# 
# [COVER] OKAY COMPLETE observed
# UVM_INFO .\TB\sv\ahb_slave_monitor.sv(84) @ 335: uvm_test_top.tb.env.slave_agent.monitor [ahb_slave_monitor] Packet Collected :
# ------------------------------------------------------------------
# Name                     Type                     Size  Value     
# ------------------------------------------------------------------
# ahb_slave_sequence_item  ahb_slave_sequence_item  -     @1137     
#   haddr                  integral                 32    'h4bc     
#   hwrite                 integral                 1     'h0       
#   hburst                 burst_t                  3     WRAP16    
#   hsize                  hsize_t                  3     HSIZE_WORD
#   htrans                 htrans_t                 2     SEQ       
#   hwdata                 integral                 32    'hc48cf4f7
#   hrdata                 integral                 32    'hc48cf4ee
#   hready                 integral                 1     'h0X      
#   hresp                  integral                 1     'h0       
# ------------------------------------------------------------------
# 
# UVM_INFO .\TB\sv\ahb_master_monitor.sv(74) @ 335: uvm_test_top.tb.env.master_agent.monitor [ahb_master_monitor] Packet Collected :
# --------------------------------------------------------------------
# Name                      Type                      Size  Value     
# --------------------------------------------------------------------
# ahb_master_sequence_item  ahb_master_sequence_item  -     @1129     
#   i_addr                  integral                  32    'h0       
#   i_data                  integral                  32    'hc48cf4f7
#   i_burst_type            burst_t                   3     WRAP16    
#   i_data_size             hsize_t                   3     HSIZE_WORD
#   haddr                   integral                  32    'h4bc     
#   i_write                 integral                  1     'h0       
#   i_wrap_en               integral                  1     'h0X      
#   i_busy                  integral                  1     'h0X      
# --------------------------------------------------------------------
# 
# [COVER] OKAY COMPLETE observed
# UVM_INFO .\TB\sv\ahb_master_monitor.sv(74) @ 345: uvm_test_top.tb.env.master_agent.monitor [ahb_master_monitor] Packet Collected :
# --------------------------------------------------------------------
# Name                      Type                      Size  Value     
# --------------------------------------------------------------------
# ahb_master_sequence_item  ahb_master_sequence_item  -     @1153     
#   i_addr                  integral                  32    'h0       
#   i_data                  integral                  32    'hc48cf4f7
#   i_burst_type            burst_t                   3     WRAP16    
#   i_data_size             hsize_t                   3     HSIZE_WORD
#   haddr                   integral                  32    'h480     
#   i_write                 integral                  1     'h0       
#   i_wrap_en               integral                  1     'h0X      
#   i_busy                  integral                  1     'h0X      
# --------------------------------------------------------------------
# 
# UVM_INFO .\TB\sv\ahb_slave_monitor.sv(84) @ 345: uvm_test_top.tb.env.slave_agent.monitor [ahb_slave_monitor] Packet Collected :
# ------------------------------------------------------------------
# Name                     Type                     Size  Value     
# ------------------------------------------------------------------
# ahb_slave_sequence_item  ahb_slave_sequence_item  -     @1145     
#   haddr                  integral                 32    'h480     
#   hwrite                 integral                 1     'h0       
#   hburst                 burst_t                  3     WRAP16    
#   hsize                  hsize_t                  3     HSIZE_WORD
#   htrans                 htrans_t                 2     SEQ       
#   hwdata                 integral                 32    'hc48cf4f7
#   hrdata                 integral                 32    'hc48cf4ef
#   hready                 integral                 1     'h0X      
#   hresp                  integral                 1     'h0       
# ------------------------------------------------------------------
# 
# [COVER] OKAY COMPLETE observed
# UVM_INFO .\TB\sv\ahb_slave_monitor.sv(84) @ 355: uvm_test_top.tb.env.slave_agent.monitor [ahb_slave_monitor] Packet Collected :
# ------------------------------------------------------------------
# Name                     Type                     Size  Value     
# ------------------------------------------------------------------
# ahb_slave_sequence_item  ahb_slave_sequence_item  -     @1169     
#   haddr                  integral                 32    'h484     
#   hwrite                 integral                 1     'h0       
#   hburst                 burst_t                  3     WRAP16    
#   hsize                  hsize_t                  3     HSIZE_WORD
#   htrans                 htrans_t                 2     SEQ       
#   hwdata                 integral                 32    'hc48cf4f7
#   hrdata                 integral                 32    'hc48cf4f0
#   hready                 integral                 1     'h0X      
#   hresp                  integral                 1     'h0       
# ------------------------------------------------------------------
# 
# UVM_INFO .\TB\sv\ahb_master_monitor.sv(74) @ 355: uvm_test_top.tb.env.master_agent.monitor [ahb_master_monitor] Packet Collected :
# --------------------------------------------------------------------
# Name                      Type                      Size  Value     
# --------------------------------------------------------------------
# ahb_master_sequence_item  ahb_master_sequence_item  -     @1161     
#   i_addr                  integral                  32    'h0       
#   i_data                  integral                  32    'hc48cf4f7
#   i_burst_type            burst_t                   3     WRAP16    
#   i_data_size             hsize_t                   3     HSIZE_WORD
#   haddr                   integral                  32    'h484     
#   i_write                 integral                  1     'h0       
#   i_wrap_en               integral                  1     'h0X      
#   i_busy                  integral                  1     'h0X      
# --------------------------------------------------------------------
# 
# [COVER] OKAY COMPLETE observed
# UVM_INFO .\TB\sv\ahb_master_monitor.sv(74) @ 365: uvm_test_top.tb.env.master_agent.monitor [ahb_master_monitor] Packet Collected :
# --------------------------------------------------------------------
# Name                      Type                      Size  Value     
# --------------------------------------------------------------------
# ahb_master_sequence_item  ahb_master_sequence_item  -     @1185     
#   i_addr                  integral                  32    'h0       
#   i_data                  integral                  32    'hc48cf4f7
#   i_burst_type            burst_t                   3     WRAP16    
#   i_data_size             hsize_t                   3     HSIZE_WORD
#   haddr                   integral                  32    'h488     
#   i_write                 integral                  1     'h0       
#   i_wrap_en               integral                  1     'h0X      
#   i_busy                  integral                  1     'h0X      
# --------------------------------------------------------------------
# 
# UVM_INFO .\TB\sv\ahb_slave_monitor.sv(84) @ 365: uvm_test_top.tb.env.slave_agent.monitor [ahb_slave_monitor] Packet Collected :
# ------------------------------------------------------------------
# Name                     Type                     Size  Value     
# ------------------------------------------------------------------
# ahb_slave_sequence_item  ahb_slave_sequence_item  -     @1177     
#   haddr                  integral                 32    'h488     
#   hwrite                 integral                 1     'h0       
#   hburst                 burst_t                  3     WRAP16    
#   hsize                  hsize_t                  3     HSIZE_WORD
#   htrans                 htrans_t                 2     SEQ       
#   hwdata                 integral                 32    'hc48cf4f7
#   hrdata                 integral                 32    'hc48cf4f1
#   hready                 integral                 1     'h0X      
#   hresp                  integral                 1     'h0       
# ------------------------------------------------------------------
# 
# [COVER] OKAY COMPLETE observed
# UVM_INFO .\TB\sv\ahb_slave_monitor.sv(84) @ 375: uvm_test_top.tb.env.slave_agent.monitor [ahb_slave_monitor] Packet Collected :
# ------------------------------------------------------------------
# Name                     Type                     Size  Value     
# ------------------------------------------------------------------
# ahb_slave_sequence_item  ahb_slave_sequence_item  -     @1201     
#   haddr                  integral                 32    'h48c     
#   hwrite                 integral                 1     'h0       
#   hburst                 burst_t                  3     WRAP16    
#   hsize                  hsize_t                  3     HSIZE_WORD
#   htrans                 htrans_t                 2     SEQ       
#   hwdata                 integral                 32    'hc48cf4f7
#   hrdata                 integral                 32    'hc48cf4f2
#   hready                 integral                 1     'h0X      
#   hresp                  integral                 1     'h0       
# ------------------------------------------------------------------
# 
# UVM_INFO .\TB\sv\ahb_master_monitor.sv(74) @ 375: uvm_test_top.tb.env.master_agent.monitor [ahb_master_monitor] Packet Collected :
# --------------------------------------------------------------------
# Name                      Type                      Size  Value     
# --------------------------------------------------------------------
# ahb_master_sequence_item  ahb_master_sequence_item  -     @1193     
#   i_addr                  integral                  32    'h0       
#   i_data                  integral                  32    'hc48cf4f7
#   i_burst_type            burst_t                   3     WRAP16    
#   i_data_size             hsize_t                   3     HSIZE_WORD
#   haddr                   integral                  32    'h48c     
#   i_write                 integral                  1     'h0       
#   i_wrap_en               integral                  1     'h0X      
#   i_busy                  integral                  1     'h0X      
# --------------------------------------------------------------------
# 
# [COVER] OKAY COMPLETE observed
# UVM_INFO .\TB\sv\ahb_master_monitor.sv(74) @ 385: uvm_test_top.tb.env.master_agent.monitor [ahb_master_monitor] Packet Collected :
# --------------------------------------------------------------------
# Name                      Type                      Size  Value     
# --------------------------------------------------------------------
# ahb_master_sequence_item  ahb_master_sequence_item  -     @1217     
#   i_addr                  integral                  32    'h0       
#   i_data                  integral                  32    'hc48cf4f7
#   i_burst_type            burst_t                   3     WRAP16    
#   i_data_size             hsize_t                   3     HSIZE_WORD
#   haddr                   integral                  32    'h490     
#   i_write                 integral                  1     'h0       
#   i_wrap_en               integral                  1     'h0X      
#   i_busy                  integral                  1     'h0X      
# --------------------------------------------------------------------
# 
# UVM_INFO .\TB\sv\ahb_slave_monitor.sv(84) @ 385: uvm_test_top.tb.env.slave_agent.monitor [ahb_slave_monitor] Packet Collected :
# ------------------------------------------------------------------
# Name                     Type                     Size  Value     
# ------------------------------------------------------------------
# ahb_slave_sequence_item  ahb_slave_sequence_item  -     @1209     
#   haddr                  integral                 32    'h490     
#   hwrite                 integral                 1     'h0       
#   hburst                 burst_t                  3     WRAP16    
#   hsize                  hsize_t                  3     HSIZE_WORD
#   htrans                 htrans_t                 2     SEQ       
#   hwdata                 integral                 32    'hc48cf4f7
#   hrdata                 integral                 32    'hc48cf4f3
#   hready                 integral                 1     'h0X      
#   hresp                  integral                 1     'h0       
# ------------------------------------------------------------------
# 
# [COVER] OKAY COMPLETE observed
# UVM_INFO .\TB\sv\ahb_slave_monitor.sv(84) @ 395: uvm_test_top.tb.env.slave_agent.monitor [ahb_slave_monitor] Packet Collected :
# ------------------------------------------------------------------
# Name                     Type                     Size  Value     
# ------------------------------------------------------------------
# ahb_slave_sequence_item  ahb_slave_sequence_item  -     @1233     
#   haddr                  integral                 32    'h494     
#   hwrite                 integral                 1     'h0       
#   hburst                 burst_t                  3     WRAP16    
#   hsize                  hsize_t                  3     HSIZE_WORD
#   htrans                 htrans_t                 2     SEQ       
#   hwdata                 integral                 32    'hc48cf4f7
#   hrdata                 integral                 32    'hc48cf4f4
#   hready                 integral                 1     'h0X      
#   hresp                  integral                 1     'h0       
# ------------------------------------------------------------------
# 
# UVM_INFO .\TB\sv\ahb_master_monitor.sv(74) @ 395: uvm_test_top.tb.env.master_agent.monitor [ahb_master_monitor] Packet Collected :
# --------------------------------------------------------------------
# Name                      Type                      Size  Value     
# --------------------------------------------------------------------
# ahb_master_sequence_item  ahb_master_sequence_item  -     @1225     
#   i_addr                  integral                  32    'h0       
#   i_data                  integral                  32    'hc48cf4f7
#   i_burst_type            burst_t                   3     WRAP16    
#   i_data_size             hsize_t                   3     HSIZE_WORD
#   haddr                   integral                  32    'h494     
#   i_write                 integral                  1     'h0       
#   i_wrap_en               integral                  1     'h0X      
#   i_busy                  integral                  1     'h0X      
# --------------------------------------------------------------------
# 
# [COVER] OKAY COMPLETE observed
# UVM_INFO .\TB\sv\ahb_master_monitor.sv(74) @ 405: uvm_test_top.tb.env.master_agent.monitor [ahb_master_monitor] Packet Collected :
# --------------------------------------------------------------------
# Name                      Type                      Size  Value     
# --------------------------------------------------------------------
# ahb_master_sequence_item  ahb_master_sequence_item  -     @1249     
#   i_addr                  integral                  32    'h0       
#   i_data                  integral                  32    'hc48cf4f7
#   i_burst_type            burst_t                   3     WRAP16    
#   i_data_size             hsize_t                   3     HSIZE_WORD
#   haddr                   integral                  32    'h498     
#   i_write                 integral                  1     'h0       
#   i_wrap_en               integral                  1     'h0X      
#   i_busy                  integral                  1     'h0X      
# --------------------------------------------------------------------
# 
# UVM_INFO .\TB\sv\ahb_slave_monitor.sv(84) @ 405: uvm_test_top.tb.env.slave_agent.monitor [ahb_slave_monitor] Packet Collected :
# ------------------------------------------------------------------
# Name                     Type                     Size  Value     
# ------------------------------------------------------------------
# ahb_slave_sequence_item  ahb_slave_sequence_item  -     @1241     
#   haddr                  integral                 32    'h498     
#   hwrite                 integral                 1     'h0       
#   hburst                 burst_t                  3     WRAP16    
#   hsize                  hsize_t                  3     HSIZE_WORD
#   htrans                 htrans_t                 2     SEQ       
#   hwdata                 integral                 32    'hc48cf4f7
#   hrdata                 integral                 32    'hc48cf4f5
#   hready                 integral                 1     'h0X      
#   hresp                  integral                 1     'h0       
# ------------------------------------------------------------------
# 
# [COVER] OKAY COMPLETE observed
# UVM_INFO .\TB\sv\ahb_slave_monitor.sv(84) @ 415: uvm_test_top.tb.env.slave_agent.monitor [ahb_slave_monitor] Packet Collected :
# ------------------------------------------------------------------
# Name                     Type                     Size  Value     
# ------------------------------------------------------------------
# ahb_slave_sequence_item  ahb_slave_sequence_item  -     @1265     
#   haddr                  integral                 32    'h49c     
#   hwrite                 integral                 1     'h0       
#   hburst                 burst_t                  3     WRAP16    
#   hsize                  hsize_t                  3     HSIZE_WORD
#   htrans                 htrans_t                 2     SEQ       
#   hwdata                 integral                 32    'hc48cf4f7
#   hrdata                 integral                 32    'hc48cf4f6
#   hready                 integral                 1     'h0X      
#   hresp                  integral                 1     'h0       
# ------------------------------------------------------------------
# 
# UVM_INFO .\TB\sv\ahb_master_monitor.sv(74) @ 415: uvm_test_top.tb.env.master_agent.monitor [ahb_master_monitor] Packet Collected :
# --------------------------------------------------------------------
# Name                      Type                      Size  Value     
# --------------------------------------------------------------------
# ahb_master_sequence_item  ahb_master_sequence_item  -     @1257     
#   i_addr                  integral                  32    'h0       
#   i_data                  integral                  32    'hc48cf4f7
#   i_burst_type            burst_t                   3     WRAP16    
#   i_data_size             hsize_t                   3     HSIZE_WORD
#   haddr                   integral                  32    'h49c     
#   i_write                 integral                  1     'h0       
#   i_wrap_en               integral                  1     'h0X      
#   i_busy                  integral                  1     'h0X      
# --------------------------------------------------------------------
# 
# [COVER] OKAY COMPLETE observed
# UVM_INFO .\TB\sv\ahb_master_monitor.sv(74) @ 425: uvm_test_top.tb.env.master_agent.monitor [ahb_master_monitor] Packet Collected :
# --------------------------------------------------------------------
# Name                      Type                      Size  Value     
# --------------------------------------------------------------------
# ahb_master_sequence_item  ahb_master_sequence_item  -     @1281     
#   i_addr                  integral                  32    'h0       
#   i_data                  integral                  32    'hc48cf4f7
#   i_burst_type            burst_t                   3     WRAP16    
#   i_data_size             hsize_t                   3     HSIZE_WORD
#   haddr                   integral                  32    'h4a0     
#   i_write                 integral                  1     'h0       
#   i_wrap_en               integral                  1     'h0X      
#   i_busy                  integral                  1     'h0X      
# --------------------------------------------------------------------
# 
# UVM_INFO .\TB\sv\ahb_slave_monitor.sv(84) @ 425: uvm_test_top.tb.env.slave_agent.monitor [ahb_slave_monitor] Packet Collected :
# ------------------------------------------------------------------
# Name                     Type                     Size  Value     
# ------------------------------------------------------------------
# ahb_slave_sequence_item  ahb_slave_sequence_item  -     @1273     
#   haddr                  integral                 32    'h4a0     
#   hwrite                 integral                 1     'h0       
#   hburst                 burst_t                  3     WRAP16    
#   hsize                  hsize_t                  3     HSIZE_WORD
#   htrans                 htrans_t                 2     SEQ       
#   hwdata                 integral                 32    'hc48cf4f7
#   hrdata                 integral                 32    'hc48cf4f7
#   hready                 integral                 1     'h0X      
#   hresp                  integral                 1     'h0       
# ------------------------------------------------------------------
# 
# UVM_INFO .\TB\sv\ahb_master_sequences.sv(48) @ 425: uvm_test_top.tb.env.master_agent.sequencer@@ahb_master_wrap16_sequences [ahb_master_wrap16_sequences] drop objection
# [COVER] OKAY COMPLETE observed
# [COVER] OKAY COMPLETE observed
# [COVER] OKAY COMPLETE observed
# [COVER] OKAY COMPLETE observed
# [COVER] OKAY COMPLETE observed
# [COVER] OKAY COMPLETE observed
# [COVER] OKAY COMPLETE observed
# [COVER] OKAY COMPLETE observed
# [COVER] OKAY COMPLETE observed
# [COVER] OKAY COMPLETE observed
# [COVER] OKAY COMPLETE observed
# [COVER] OKAY COMPLETE observed
# [COVER] OKAY COMPLETE observed
# [COVER] OKAY COMPLETE observed
# [COVER] OKAY COMPLETE observed
# [COVER] OKAY COMPLETE observed
# [COVER] OKAY COMPLETE observed
# [COVER] OKAY COMPLETE observed
# [COVER] OKAY COMPLETE observed
# [COVER] OKAY COMPLETE observed
# UVM_INFO C:/questasim64_10.7c/verilog_src/uvm-1.1d/src/base/uvm_objection.svh(1243) @ 625: reporter [TEST_DONE] All end-of-test objections have been dropped. Calling stop tasks
# UVM_INFO C:/questasim64_10.7c/verilog_src/uvm-1.1d/src/base/uvm_objection.svh(1267) @ 625: reporter [TEST_DONE] 'run' phase is ready to proceed to the 'extract' phase
# UVM_INFO .\TB\sv\ahb_scoreboard.sv(271) @ 625: uvm_test_top.tb.env.ahb_scb [SCOREBOARD_ADDR] ADDR PASS: expected=0x4a4 actual=0x4a4 burst=WRAP16 size=HSIZE_WORD
# UVM_INFO .\TB\sv\ahb_scoreboard.sv(298) @ 625: uvm_test_top.tb.env.ahb_scb [SCOREBOARD_DATA] WRITE PASS: addr=0x4a4 data=0xc48cf4e8
# UVM_INFO .\TB\sv\ahb_scoreboard.sv(271) @ 625: uvm_test_top.tb.env.ahb_scb [SCOREBOARD_ADDR] ADDR PASS: expected=0x4a8 actual=0x4a8 burst=WRAP16 size=HSIZE_WORD
# UVM_INFO .\TB\sv\ahb_scoreboard.sv(298) @ 625: uvm_test_top.tb.env.ahb_scb [SCOREBOARD_DATA] WRITE PASS: addr=0x4a8 data=0xc48cf4e9
# UVM_INFO .\TB\sv\ahb_scoreboard.sv(271) @ 625: uvm_test_top.tb.env.ahb_scb [SCOREBOARD_ADDR] ADDR PASS: expected=0x4ac actual=0x4ac burst=WRAP16 size=HSIZE_WORD
# UVM_INFO .\TB\sv\ahb_scoreboard.sv(298) @ 625: uvm_test_top.tb.env.ahb_scb [SCOREBOARD_DATA] WRITE PASS: addr=0x4ac data=0xc48cf4ea
# UVM_INFO .\TB\sv\ahb_scoreboard.sv(271) @ 625: uvm_test_top.tb.env.ahb_scb [SCOREBOARD_ADDR] ADDR PASS: expected=0x4b0 actual=0x4b0 burst=WRAP16 size=HSIZE_WORD
# UVM_INFO .\TB\sv\ahb_scoreboard.sv(298) @ 625: uvm_test_top.tb.env.ahb_scb [SCOREBOARD_DATA] WRITE PASS: addr=0x4b0 data=0xc48cf4eb
# UVM_INFO .\TB\sv\ahb_scoreboard.sv(271) @ 625: uvm_test_top.tb.env.ahb_scb [SCOREBOARD_ADDR] ADDR PASS: expected=0x4b4 actual=0x4b4 burst=WRAP16 size=HSIZE_WORD
# UVM_INFO .\TB\sv\ahb_scoreboard.sv(298) @ 625: uvm_test_top.tb.env.ahb_scb [SCOREBOARD_DATA] WRITE PASS: addr=0x4b4 data=0xc48cf4ec
# UVM_INFO .\TB\sv\ahb_scoreboard.sv(271) @ 625: uvm_test_top.tb.env.ahb_scb [SCOREBOARD_ADDR] ADDR PASS: expected=0x4b8 actual=0x4b8 burst=WRAP16 size=HSIZE_WORD
# UVM_INFO .\TB\sv\ahb_scoreboard.sv(298) @ 625: uvm_test_top.tb.env.ahb_scb [SCOREBOARD_DATA] WRITE PASS: addr=0x4b8 data=0xc48cf4ed
# UVM_INFO .\TB\sv\ahb_scoreboard.sv(271) @ 625: uvm_test_top.tb.env.ahb_scb [SCOREBOARD_ADDR] ADDR PASS: expected=0x4bc actual=0x4bc burst=WRAP16 size=HSIZE_WORD
# UVM_INFO .\TB\sv\ahb_scoreboard.sv(298) @ 625: uvm_test_top.tb.env.ahb_scb [SCOREBOARD_DATA] WRITE PASS: addr=0x4bc data=0xc48cf4ee
# UVM_INFO .\TB\sv\ahb_scoreboard.sv(271) @ 625: uvm_test_top.tb.env.ahb_scb [SCOREBOARD_ADDR] ADDR PASS: expected=0x480 actual=0x480 burst=WRAP16 size=HSIZE_WORD
# UVM_INFO .\TB\sv\ahb_scoreboard.sv(298) @ 625: uvm_test_top.tb.env.ahb_scb [SCOREBOARD_DATA] WRITE PASS: addr=0x480 data=0xc48cf4ef
# UVM_INFO .\TB\sv\ahb_scoreboard.sv(271) @ 625: uvm_test_top.tb.env.ahb_scb [SCOREBOARD_ADDR] ADDR PASS: expected=0x484 actual=0x484 burst=WRAP16 size=HSIZE_WORD
# UVM_INFO .\TB\sv\ahb_scoreboard.sv(298) @ 625: uvm_test_top.tb.env.ahb_scb [SCOREBOARD_DATA] WRITE PASS: addr=0x484 data=0xc48cf4f0
# UVM_INFO .\TB\sv\ahb_scoreboard.sv(271) @ 625: uvm_test_top.tb.env.ahb_scb [SCOREBOARD_ADDR] ADDR PASS: expected=0x488 actual=0x488 burst=WRAP16 size=HSIZE_WORD
# UVM_INFO .\TB\sv\ahb_scoreboard.sv(298) @ 625: uvm_test_top.tb.env.ahb_scb [SCOREBOARD_DATA] WRITE PASS: addr=0x488 data=0xc48cf4f1
# UVM_INFO .\TB\sv\ahb_scoreboard.sv(271) @ 625: uvm_test_top.tb.env.ahb_scb [SCOREBOARD_ADDR] ADDR PASS: expected=0x48c actual=0x48c burst=WRAP16 size=HSIZE_WORD
# UVM_INFO .\TB\sv\ahb_scoreboard.sv(298) @ 625: uvm_test_top.tb.env.ahb_scb [SCOREBOARD_DATA] WRITE PASS: addr=0x48c data=0xc48cf4f2
# UVM_INFO .\TB\sv\ahb_scoreboard.sv(271) @ 625: uvm_test_top.tb.env.ahb_scb [SCOREBOARD_ADDR] ADDR PASS: expected=0x490 actual=0x490 burst=WRAP16 size=HSIZE_WORD
# UVM_INFO .\TB\sv\ahb_scoreboard.sv(298) @ 625: uvm_test_top.tb.env.ahb_scb [SCOREBOARD_DATA] WRITE PASS: addr=0x490 data=0xc48cf4f3
# UVM_INFO .\TB\sv\ahb_scoreboard.sv(271) @ 625: uvm_test_top.tb.env.ahb_scb [SCOREBOARD_ADDR] ADDR PASS: expected=0x494 actual=0x494 burst=WRAP16 size=HSIZE_WORD
# UVM_INFO .\TB\sv\ahb_scoreboard.sv(298) @ 625: uvm_test_top.tb.env.ahb_scb [SCOREBOARD_DATA] WRITE PASS: addr=0x494 data=0xc48cf4f4
# UVM_INFO .\TB\sv\ahb_scoreboard.sv(271) @ 625: uvm_test_top.tb.env.ahb_scb [SCOREBOARD_ADDR] ADDR PASS: expected=0x498 actual=0x498 burst=WRAP16 size=HSIZE_WORD
# UVM_INFO .\TB\sv\ahb_scoreboard.sv(298) @ 625: uvm_test_top.tb.env.ahb_scb [SCOREBOARD_DATA] WRITE PASS: addr=0x498 data=0xc48cf4f5
# UVM_INFO .\TB\sv\ahb_scoreboard.sv(271) @ 625: uvm_test_top.tb.env.ahb_scb [SCOREBOARD_ADDR] ADDR PASS: expected=0x49c actual=0x49c burst=WRAP16 size=HSIZE_WORD
# UVM_INFO .\TB\sv\ahb_scoreboard.sv(298) @ 625: uvm_test_top.tb.env.ahb_scb [SCOREBOARD_DATA] WRITE PASS: addr=0x49c data=0xc48cf4f6
# UVM_INFO .\TB\sv\ahb_scoreboard.sv(271) @ 625: uvm_test_top.tb.env.ahb_scb [SCOREBOARD_ADDR] ADDR PASS: expected=0x4a0 actual=0x4a0 burst=WRAP16 size=HSIZE_WORD
# UVM_INFO .\TB\sv\ahb_scoreboard.sv(298) @ 625: uvm_test_top.tb.env.ahb_scb [SCOREBOARD_DATA] WRITE PASS: addr=0x4a0 data=0xc48cf4f7
# UVM_INFO .\TB\sv\ahb_scoreboard.sv(271) @ 625: uvm_test_top.tb.env.ahb_scb [SCOREBOARD_ADDR] ADDR PASS: expected=0x4a4 actual=0x4a4 burst=WRAP16 size=HSIZE_WORD
# UVM_INFO .\TB\sv\ahb_scoreboard.sv(298) @ 625: uvm_test_top.tb.env.ahb_scb [SCOREBOARD_DATA] WRITE PASS: addr=0x4a4 data=0xc48cf4f7
# UVM_INFO .\TB\sv\ahb_scoreboard.sv(271) @ 625: uvm_test_top.tb.env.ahb_scb [SCOREBOARD_ADDR] ADDR PASS: expected=0x4a8 actual=0x4a8 burst=WRAP16 size=HSIZE_WORD
# UVM_INFO .\TB\sv\ahb_scoreboard.sv(298) @ 625: uvm_test_top.tb.env.ahb_scb [SCOREBOARD_DATA] WRITE PASS: addr=0x4a8 data=0xc48cf4f7
# UVM_INFO .\TB\sv\ahb_scoreboard.sv(271) @ 625: uvm_test_top.tb.env.ahb_scb [SCOREBOARD_ADDR] ADDR PASS: expected=0x4a4 actual=0x4a4 burst=WRAP16 size=HSIZE_WORD
# UVM_INFO .\TB\sv\ahb_scoreboard.sv(341) @ 625: uvm_test_top.tb.env.ahb_scb [SCOREBOARD_DATA] READ PASS: addr=0x4a4 exp=0xc48cf4f7 act=0xc48cf4f7
# UVM_INFO .\TB\sv\ahb_scoreboard.sv(271) @ 625: uvm_test_top.tb.env.ahb_scb [SCOREBOARD_ADDR] ADDR PASS: expected=0x4a8 actual=0x4a8 burst=WRAP16 size=HSIZE_WORD
# UVM_INFO .\TB\sv\ahb_scoreboard.sv(341) @ 625: uvm_test_top.tb.env.ahb_scb [SCOREBOARD_DATA] READ PASS: addr=0x4a8 exp=0xc48cf4f7 act=0xc48cf4f7
# UVM_INFO .\TB\sv\ahb_scoreboard.sv(271) @ 625: uvm_test_top.tb.env.ahb_scb [SCOREBOARD_ADDR] ADDR PASS: expected=0x4ac actual=0x4ac burst=WRAP16 size=HSIZE_WORD
# UVM_INFO .\TB\sv\ahb_scoreboard.sv(341) @ 625: uvm_test_top.tb.env.ahb_scb [SCOREBOARD_DATA] READ PASS: addr=0x4ac exp=0xc48cf4ea act=0xc48cf4ea
# UVM_INFO .\TB\sv\ahb_scoreboard.sv(271) @ 625: uvm_test_top.tb.env.ahb_scb [SCOREBOARD_ADDR] ADDR PASS: expected=0x4b0 actual=0x4b0 burst=WRAP16 size=HSIZE_WORD
# UVM_INFO .\TB\sv\ahb_scoreboard.sv(341) @ 625: uvm_test_top.tb.env.ahb_scb [SCOREBOARD_DATA] READ PASS: addr=0x4b0 exp=0xc48cf4eb act=0xc48cf4eb
# UVM_INFO .\TB\sv\ahb_scoreboard.sv(271) @ 625: uvm_test_top.tb.env.ahb_scb [SCOREBOARD_ADDR] ADDR PASS: expected=0x4b4 actual=0x4b4 burst=WRAP16 size=HSIZE_WORD
# UVM_INFO .\TB\sv\ahb_scoreboard.sv(341) @ 625: uvm_test_top.tb.env.ahb_scb [SCOREBOARD_DATA] READ PASS: addr=0x4b4 exp=0xc48cf4ec act=0xc48cf4ec
# UVM_INFO .\TB\sv\ahb_scoreboard.sv(271) @ 625: uvm_test_top.tb.env.ahb_scb [SCOREBOARD_ADDR] ADDR PASS: expected=0x4b8 actual=0x4b8 burst=WRAP16 size=HSIZE_WORD
# UVM_INFO .\TB\sv\ahb_scoreboard.sv(341) @ 625: uvm_test_top.tb.env.ahb_scb [SCOREBOARD_DATA] READ PASS: addr=0x4b8 exp=0xc48cf4ed act=0xc48cf4ed
# UVM_INFO .\TB\sv\ahb_scoreboard.sv(271) @ 625: uvm_test_top.tb.env.ahb_scb [SCOREBOARD_ADDR] ADDR PASS: expected=0x4bc actual=0x4bc burst=WRAP16 size=HSIZE_WORD
# UVM_INFO .\TB\sv\ahb_scoreboard.sv(341) @ 625: uvm_test_top.tb.env.ahb_scb [SCOREBOARD_DATA] READ PASS: addr=0x4bc exp=0xc48cf4ee act=0xc48cf4ee
# UVM_INFO .\TB\sv\ahb_scoreboard.sv(271) @ 625: uvm_test_top.tb.env.ahb_scb [SCOREBOARD_ADDR] ADDR PASS: expected=0x480 actual=0x480 burst=WRAP16 size=HSIZE_WORD
# UVM_INFO .\TB\sv\ahb_scoreboard.sv(341) @ 625: uvm_test_top.tb.env.ahb_scb [SCOREBOARD_DATA] READ PASS: addr=0x480 exp=0xc48cf4ef act=0xc48cf4ef
# UVM_INFO .\TB\sv\ahb_scoreboard.sv(271) @ 625: uvm_test_top.tb.env.ahb_scb [SCOREBOARD_ADDR] ADDR PASS: expected=0x484 actual=0x484 burst=WRAP16 size=HSIZE_WORD
# UVM_INFO .\TB\sv\ahb_scoreboard.sv(341) @ 625: uvm_test_top.tb.env.ahb_scb [SCOREBOARD_DATA] READ PASS: addr=0x484 exp=0xc48cf4f0 act=0xc48cf4f0
# UVM_INFO .\TB\sv\ahb_scoreboard.sv(271) @ 625: uvm_test_top.tb.env.ahb_scb [SCOREBOARD_ADDR] ADDR PASS: expected=0x488 actual=0x488 burst=WRAP16 size=HSIZE_WORD
# UVM_INFO .\TB\sv\ahb_scoreboard.sv(341) @ 625: uvm_test_top.tb.env.ahb_scb [SCOREBOARD_DATA] READ PASS: addr=0x488 exp=0xc48cf4f1 act=0xc48cf4f1
# UVM_INFO .\TB\sv\ahb_scoreboard.sv(271) @ 625: uvm_test_top.tb.env.ahb_scb [SCOREBOARD_ADDR] ADDR PASS: expected=0x48c actual=0x48c burst=WRAP16 size=HSIZE_WORD
# UVM_INFO .\TB\sv\ahb_scoreboard.sv(341) @ 625: uvm_test_top.tb.env.ahb_scb [SCOREBOARD_DATA] READ PASS: addr=0x48c exp=0xc48cf4f2 act=0xc48cf4f2
# UVM_INFO .\TB\sv\ahb_scoreboard.sv(271) @ 625: uvm_test_top.tb.env.ahb_scb [SCOREBOARD_ADDR] ADDR PASS: expected=0x490 actual=0x490 burst=WRAP16 size=HSIZE_WORD
# UVM_INFO .\TB\sv\ahb_scoreboard.sv(341) @ 625: uvm_test_top.tb.env.ahb_scb [SCOREBOARD_DATA] READ PASS: addr=0x490 exp=0xc48cf4f3 act=0xc48cf4f3
# UVM_INFO .\TB\sv\ahb_scoreboard.sv(271) @ 625: uvm_test_top.tb.env.ahb_scb [SCOREBOARD_ADDR] ADDR PASS: expected=0x494 actual=0x494 burst=WRAP16 size=HSIZE_WORD
# UVM_INFO .\TB\sv\ahb_scoreboard.sv(341) @ 625: uvm_test_top.tb.env.ahb_scb [SCOREBOARD_DATA] READ PASS: addr=0x494 exp=0xc48cf4f4 act=0xc48cf4f4
# UVM_INFO .\TB\sv\ahb_scoreboard.sv(271) @ 625: uvm_test_top.tb.env.ahb_scb [SCOREBOARD_ADDR] ADDR PASS: expected=0x498 actual=0x498 burst=WRAP16 size=HSIZE_WORD
# UVM_INFO .\TB\sv\ahb_scoreboard.sv(341) @ 625: uvm_test_top.tb.env.ahb_scb [SCOREBOARD_DATA] READ PASS: addr=0x498 exp=0xc48cf4f5 act=0xc48cf4f5
