#  log -r /*
#  run -all
# ----------------------------------------------------------------
# UVM-1.1d
# (C) 2007-2013 Mentor Graphics Corporation
# (C) 2007-2013 Cadence Design Systems, Inc.
# (C) 2006-2013 Synopsys, Inc.
# (C) 2011-2013 Cypress Semiconductor Corp.
# ----------------------------------------------------------------
# 
#   ***********       IMPORTANT RELEASE NOTES         ************
# 
#   You are using a version of the UVM library that has been compiled
#   with `UVM_NO_DEPRECATED undefined.
#   See http://www.eda.org/svdb/view.php?id=3313 for more details.
# 
#   You are using a version of the UVM library that has been compiled
#   with `UVM_OBJECT_MUST_HAVE_CONSTRUCTOR undefined.
#   See http://www.eda.org/svdb/view.php?id=3770 for more details.
# 
#       (Specify +UVM_NO_RELNOTES to turn off this notice)
# 
# UVM_INFO C:/questasim64_10.7c/verilog_src/uvm-1.1d/src/base/uvm_root.svh(370) @ 0: reporter [NO_DPI_TSTNAME] UVM_NO_DPI defined--getting UVM_TESTNAME directly, without DPI
# UVM_INFO @ 0: reporter [RNTST] Running test ahb_master_incr16_test...
# UVM_INFO .\TB\tb\ahb_tb.sv(18) @ 0: uvm_test_top.tb [ahb_tb] Testbench Build Phase is being executed !
# UVM_INFO .\TB\sv\ahb_master_agent.sv(23) @ 0: uvm_test_top.tb.env.master_agent [CFG] Property is_active exists in config DB
# UVM_INFO .\TB\sv\ahb_master_agent.sv(34) @ 0: uvm_test_top.tb.env.master_agent [ahb_master_agent] AGENT IS ACTIVE !
# UVM_INFO .\TB\sv\ahb_slave_agent.sv(23) @ 0: uvm_test_top.tb.env.slave_agent [CFG] Property is_active exists in config DB
# UVM_INFO .\TB\sv\ahb_master_driver.sv(24) @ 0: uvm_test_top.tb.env.master_agent.driver [ahb_master_driver] Driver is connected with interface
# UVM_INFO .\TB\sv\ahb_master_monitor.sv(26) @ 0: uvm_test_top.tb.env.master_agent.monitor [ahb_master_monitor] Driver is connected with interface
# UVM_INFO .\TB\sv\ahb_slave_monitor.sv(26) @ 0: uvm_test_top.tb.env.slave_agent.monitor [ahb_slave_monitor] Driver is connected with interface
# UVM_INFO .\TB\tb\ahb_test_lib.sv(25) @ 0: uvm_test_top [ahb_master_incr16_test] End of Elaboration Phase of Test is being executed!
# UVM_INFO @ 0: reporter [UVMTOP] UVM testbench topology:
# -------------------------------------------------------------------
# Name                           Type                     Size  Value
# -------------------------------------------------------------------
# uvm_test_top                   ahb_master_incr16_test   -     @452 
#   tb                           ahb_tb                   -     @471 
#     env                        ahb_env                  -     @478 
#       ahb_scb                  ahb_scoreboard           -     @499 
#         master_imp             uvm_analysis_imp_master  -     @506 
#           recording_detail     integral                 32    'd1  
#         slave_imp              uvm_analysis_imp_slave   -     @514 
#           recording_detail     integral                 32    'd1  
#         recording_detail       integral                 32    'd1  
#       master_agent             ahb_master_agent         -     @485 
#         driver                 ahb_master_driver        -     @555 
#           rsp_port             uvm_analysis_port        -     @570 
#             recording_detail   integral                 32    'd1  
#           seq_item_port        uvm_seq_item_pull_port   -     @562 
#             recording_detail   integral                 32    'd1  
#           recording_detail     integral                 32    'd1  
#         monitor                ahb_master_monitor       -     @538 
#           item_collected_port  uvm_analysis_port        -     @545 
#             recording_detail   integral                 32    'd1  
#           recording_detail     integral                 32    'd1  
#         sequencer              ahb_master_sequencer     -     @578 
#           rsp_export           uvm_analysis_export      -     @585 
#             recording_detail   integral                 32    'd1  
#           seq_item_export      uvm_seq_item_pull_imp    -     @679 
#             recording_detail   integral                 32    'd1  
#           recording_detail     integral                 32    'd1  
#           arbitration_queue    array                    0     -    
#           lock_queue           array                    0     -    
#           num_last_reqs        integral                 32    'd1  
#           num_last_rsps        integral                 32    'd1  
#         recording_detail       integral                 32    'd1  
#       slave_agent              ahb_slave_agent          -     @492 
#         monitor                ahb_slave_monitor        -     @693 
#           item_collected_port  uvm_analysis_port        -     @700 
#             recording_detail   integral                 32    'd1  
#           recording_detail     integral                 32    'd1  
#         recording_detail       integral                 32    'd1  
#       slave_cov                func_cov                 -     @522 
#         analysis_imp           uvm_analysis_imp         -     @529 
#           recording_detail     integral                 32    'd1  
#         recording_detail       integral                 32    'd1  
#       recording_detail         integral                 32    'd1  
#     recording_detail           integral                 32    'd1  
# -------------------------------------------------------------------
# 
# UVM_INFO .\TB\sv\ahb_master_driver.sv(28) @ 0: uvm_test_top.tb.env.master_agent.driver [ahb_master_driver] start of simulation for uvm_test_top.tb.env.master_agent.driver
# UVM_INFO .\TB\sv\ahb_master_monitor.sv(30) @ 0: uvm_test_top.tb.env.master_agent.monitor [ahb_master_monitor] start of simulation for uvm_test_top.tb.env.master_agent.monitor
# UVM_INFO .\TB\sv\ahb_master_agent.sv(48) @ 0: uvm_test_top.tb.env.master_agent [ahb_master_agent] start of simulation for uvm_test_top.tb.env.master_agent
# UVM_INFO .\TB\sv\ahb_slave_monitor.sv(30) @ 0: uvm_test_top.tb.env.slave_agent.monitor [ahb_slave_monitor] start of simulation for uvm_test_top.tb.env.slave_agent.monitor
# UVM_INFO .\TB\sv\ahb_slave_agent.sv(48) @ 0: uvm_test_top.tb.env.slave_agent [ahb_slave_agent] start of simulation for uvm_test_top.tb.env.slave_agent
# UVM_INFO .\TB\sv\ahb_env.sv(34) @ 0: uvm_test_top.tb.env [ahb_env] start of simulation for uvm_test_top.tb.env
# UVM_INFO .\TB\tb\ahb_tb.sv(22) @ 0: uvm_test_top.tb [ahb_tb] start of simulation for uvm_test_top.tb
# UVM_INFO .\TB\tb\ahb_test_lib.sv(34) @ 0: uvm_test_top [ahb_master_incr16_test] Run Phase of Test is being executed!
# UVM_INFO .\TB\tb\ahb_test_lib.sv(37) @ 0: uvm_test_top [ahb_master_incr16_test] Raise objection in run phase
# UVM_INFO .\TB\tb\ahb_test_lib.sv(39) @ 0: uvm_test_top [ahb_master_incr16_test] Drop objection in run phase
# UVM_INFO .\TB\tb\ahb_tb.sv(26) @ 0: uvm_test_top.tb [ahb_tb] Testbench Run Phase is begin executed!
# UVM_INFO C:/questasim64_10.7c/verilog_src/uvm-1.1d/src/seq/uvm_sequencer_base.svh(1390) @ 0: uvm_test_top.tb.env.master_agent.sequencer [PHASESEQ] Starting default sequence 'ahb_master_incr16_sequences' for phase 'run'
# UVM_INFO .\TB\sv\ahb_master_driver.sv(32) @ 0: uvm_test_top.tb.env.master_agent.driver [ahb_master_driver] Driver is running
# UVM_INFO .\TB\sv\ahb_master_sequences.sv(28) @ 0: uvm_test_top.tb.env.master_agent.sequencer@@ahb_master_incr16_sequences [ahb_master_incr16_sequences] raise objection
# UVM_INFO .\TB\sv\ahb_master_sequences.sv(167) @ 0: uvm_test_top.tb.env.master_agent.sequencer@@ahb_master_incr16_sequences [ahb_master_incr16_sequences] Executing ahb_master_incr16_sequences
# UVM_INFO C:/questasim64_10.7c/verilog_src/uvm-1.1d/src/seq/uvm_sequencer_base.svh(1384) @ 0: uvm_test_top.tb.env.master_agent.sequencer [PHASESEQ] No default phase sequence for phase 'pre_reset'
# UVM_INFO C:/questasim64_10.7c/verilog_src/uvm-1.1d/src/seq/uvm_sequencer_base.svh(1384) @ 0: uvm_test_top.tb.env.master_agent.sequencer [PHASESEQ] No default phase sequence for phase 'reset'
# UVM_INFO C:/questasim64_10.7c/verilog_src/uvm-1.1d/src/seq/uvm_sequencer_base.svh(1384) @ 0: uvm_test_top.tb.env.master_agent.sequencer [PHASESEQ] No default phase sequence for phase 'post_reset'
# UVM_INFO C:/questasim64_10.7c/verilog_src/uvm-1.1d/src/seq/uvm_sequencer_base.svh(1384) @ 0: uvm_test_top.tb.env.master_agent.sequencer [PHASESEQ] No default phase sequence for phase 'pre_configure'
# UVM_INFO C:/questasim64_10.7c/verilog_src/uvm-1.1d/src/seq/uvm_sequencer_base.svh(1384) @ 0: uvm_test_top.tb.env.master_agent.sequencer [PHASESEQ] No default phase sequence for phase 'configure'
# UVM_INFO C:/questasim64_10.7c/verilog_src/uvm-1.1d/src/seq/uvm_sequencer_base.svh(1384) @ 0: uvm_test_top.tb.env.master_agent.sequencer [PHASESEQ] No default phase sequence for phase 'post_configure'
# UVM_INFO C:/questasim64_10.7c/verilog_src/uvm-1.1d/src/seq/uvm_sequencer_base.svh(1384) @ 0: uvm_test_top.tb.env.master_agent.sequencer [PHASESEQ] No default phase sequence for phase 'pre_main'
# UVM_INFO C:/questasim64_10.7c/verilog_src/uvm-1.1d/src/seq/uvm_sequencer_base.svh(1384) @ 0: uvm_test_top.tb.env.master_agent.sequencer [PHASESEQ] No default phase sequence for phase 'main'
# UVM_INFO C:/questasim64_10.7c/verilog_src/uvm-1.1d/src/seq/uvm_sequencer_base.svh(1384) @ 0: uvm_test_top.tb.env.master_agent.sequencer [PHASESEQ] No default phase sequence for phase 'post_main'
# UVM_INFO C:/questasim64_10.7c/verilog_src/uvm-1.1d/src/seq/uvm_sequencer_base.svh(1384) @ 0: uvm_test_top.tb.env.master_agent.sequencer [PHASESEQ] No default phase sequence for phase 'pre_shutdown'
# UVM_INFO C:/questasim64_10.7c/verilog_src/uvm-1.1d/src/seq/uvm_sequencer_base.svh(1384) @ 0: uvm_test_top.tb.env.master_agent.sequencer [PHASESEQ] No default phase sequence for phase 'shutdown'
# UVM_INFO C:/questasim64_10.7c/verilog_src/uvm-1.1d/src/seq/uvm_sequencer_base.svh(1384) @ 0: uvm_test_top.tb.env.master_agent.sequencer [PHASESEQ] No default phase sequence for phase 'post_shutdown'
# UVM_INFO .\TB\sv\ahb_slave_monitor.sv(37) @ 25: uvm_test_top.tb.env.slave_agent.monitor [ahb_slave_monitor] Detected Reset Done
# UVM_INFO .\TB\sv\ahb_master_monitor.sv(37) @ 25: uvm_test_top.tb.env.master_agent.monitor [ahb_master_monitor] Detected Reset Done
# UVM_INFO .\TB\sv\ahb_master_driver.sv(37) @ 25: uvm_test_top.tb.env.master_agent.driver [ahb_master_driver] Detected Reset Done
# UVM_INFO .\TB\sv\ahb_master_driver.sv(50) @ 25: uvm_test_top.tb.env.master_agent.driver [ahb_master_driver] Sending Packet :
# -------------------------------------------------------------------------------------------------------------------------------------
# Name                           Type                      Size  Value                                                                 
# -------------------------------------------------------------------------------------------------------------------------------------
# req                            ahb_master_sequence_item  -     @720                                                                  
#   i_addr                       integral                  32    'h481                                                                 
#   i_data                       integral                  32    'h1ceb2438                                                            
#   i_burst_type                 burst_t                   3     INCR16                                                                
#   i_data_size                  hsize_t                   3     HSIZE_BYTE                                                            
#   haddr                        integral                  32    'h0xxxxxxxx                                                           
#   i_write                      integral                  1     'h0X                                                                  
#   i_wrap_en                    integral                  1     'h0X                                                                  
#   i_busy                       integral                  1     'h0X                                                                  
#   begin_time                   time                      64    25                                                                    
#   depth                        int                       32    'd2                                                                   
#   parent sequence (name)       string                    27    ahb_master_incr16_sequences                                           
#   parent sequence (full name)  string                    70    uvm_test_top.tb.env.master_agent.sequencer.ahb_master_incr16_sequences
#   sequencer                    string                    42    uvm_test_top.tb.env.master_agent.sequencer                            
# -------------------------------------------------------------------------------------------------------------------------------------
# 
# [COVER] OKAY COMPLETE observed
# [COVER] OKAY COMPLETE observed
# [COVER] OKAY COMPLETE observed
# [COVER] OKAY COMPLETE observed
# [COVER] OKAY COMPLETE observed
# Slave First time Sample
# UVM_INFO .\TB\sv\ahb_slave_monitor.sv(84) @ 75: uvm_test_top.tb.env.slave_agent.monitor [ahb_slave_monitor] Packet Collected :
# ------------------------------------------------------------------
# Name                     Type                     Size  Value     
# ------------------------------------------------------------------
# ahb_slave_sequence_item  ahb_slave_sequence_item  -     @748      
#   haddr                  integral                 32    'h481     
#   hwrite                 integral                 1     'h1       
#   hburst                 burst_t                  3     INCR16    
#   hsize                  hsize_t                  3     HSIZE_BYTE
#   htrans                 htrans_t                 2     NONSEQ    
#   hwdata                 integral                 32    'h1ceb2438
#   hrdata                 integral                 32    'h0       
#   hready                 integral                 1     'h0X      
#   hresp                  integral                 1     'h0       
# ------------------------------------------------------------------
# 
# Master First time Sample
# UVM_INFO .\TB\sv\ahb_master_monitor.sv(74) @ 75: uvm_test_top.tb.env.master_agent.monitor [ahb_master_monitor] Packet Collected :
# --------------------------------------------------------------------
# Name                      Type                      Size  Value     
# --------------------------------------------------------------------
# ahb_master_sequence_item  ahb_master_sequence_item  -     @752      
#   i_addr                  integral                  32    'h0       
#   i_data                  integral                  32    'h1ceb2438
#   i_burst_type            burst_t                   3     INCR16    
#   i_data_size             hsize_t                   3     HSIZE_BYTE
#   haddr                   integral                  32    'h481     
#   i_write                 integral                  1     'h1       
#   i_wrap_en               integral                  1     'h0X      
#   i_busy                  integral                  1     'h0X      
# --------------------------------------------------------------------
# 
# [COVER] OKAY COMPLETE observed
# UVM_INFO .\TB\sv\ahb_master_monitor.sv(74) @ 85: uvm_test_top.tb.env.master_agent.monitor [ahb_master_monitor] Packet Collected :
# --------------------------------------------------------------------
# Name                      Type                      Size  Value     
# --------------------------------------------------------------------
# ahb_master_sequence_item  ahb_master_sequence_item  -     @769      
#   i_addr                  integral                  32    'h0       
#   i_data                  integral                  32    'h1ceb2439
#   i_burst_type            burst_t                   3     INCR16    
#   i_data_size             hsize_t                   3     HSIZE_BYTE
#   haddr                   integral                  32    'h482     
#   i_write                 integral                  1     'h1       
#   i_wrap_en               integral                  1     'h0X      
#   i_busy                  integral                  1     'h0X      
# --------------------------------------------------------------------
# 
# UVM_INFO .\TB\sv\ahb_slave_monitor.sv(84) @ 85: uvm_test_top.tb.env.slave_agent.monitor [ahb_slave_monitor] Packet Collected :
# ------------------------------------------------------------------
# Name                     Type                     Size  Value     
# ------------------------------------------------------------------
# ahb_slave_sequence_item  ahb_slave_sequence_item  -     @761      
#   haddr                  integral                 32    'h482     
#   hwrite                 integral                 1     'h1       
#   hburst                 burst_t                  3     INCR16    
#   hsize                  hsize_t                  3     HSIZE_BYTE
#   htrans                 htrans_t                 2     SEQ       
#   hwdata                 integral                 32    'h1ceb2439
#   hrdata                 integral                 32    'h0       
#   hready                 integral                 1     'h0X      
#   hresp                  integral                 1     'h0       
# ------------------------------------------------------------------
# 
# [COVER] OKAY COMPLETE observed
# UVM_INFO .\TB\sv\ahb_slave_monitor.sv(84) @ 95: uvm_test_top.tb.env.slave_agent.monitor [ahb_slave_monitor] Packet Collected :
# ------------------------------------------------------------------
# Name                     Type                     Size  Value     
# ------------------------------------------------------------------
# ahb_slave_sequence_item  ahb_slave_sequence_item  -     @785      
#   haddr                  integral                 32    'h483     
#   hwrite                 integral                 1     'h1       
#   hburst                 burst_t                  3     INCR16    
#   hsize                  hsize_t                  3     HSIZE_BYTE
#   htrans                 htrans_t                 2     SEQ       
#   hwdata                 integral                 32    'h1ceb243a
#   hrdata                 integral                 32    'h0       
#   hready                 integral                 1     'h0X      
#   hresp                  integral                 1     'h0       
# ------------------------------------------------------------------
# 
# UVM_INFO .\TB\sv\ahb_master_monitor.sv(74) @ 95: uvm_test_top.tb.env.master_agent.monitor [ahb_master_monitor] Packet Collected :
# --------------------------------------------------------------------
# Name                      Type                      Size  Value     
# --------------------------------------------------------------------
# ahb_master_sequence_item  ahb_master_sequence_item  -     @777      
#   i_addr                  integral                  32    'h0       
#   i_data                  integral                  32    'h1ceb243a
#   i_burst_type            burst_t                   3     INCR16    
#   i_data_size             hsize_t                   3     HSIZE_BYTE
#   haddr                   integral                  32    'h483     
#   i_write                 integral                  1     'h1       
#   i_wrap_en               integral                  1     'h0X      
#   i_busy                  integral                  1     'h0X      
# --------------------------------------------------------------------
# 
# [COVER] OKAY COMPLETE observed
# UVM_INFO .\TB\sv\ahb_master_monitor.sv(74) @ 105: uvm_test_top.tb.env.master_agent.monitor [ahb_master_monitor] Packet Collected :
# --------------------------------------------------------------------
# Name                      Type                      Size  Value     
# --------------------------------------------------------------------
# ahb_master_sequence_item  ahb_master_sequence_item  -     @801      
#   i_addr                  integral                  32    'h0       
#   i_data                  integral                  32    'h1ceb243b
#   i_burst_type            burst_t                   3     INCR16    
#   i_data_size             hsize_t                   3     HSIZE_BYTE
#   haddr                   integral                  32    'h484     
#   i_write                 integral                  1     'h1       
#   i_wrap_en               integral                  1     'h0X      
#   i_busy                  integral                  1     'h0X      
# --------------------------------------------------------------------
# 
# UVM_INFO .\TB\sv\ahb_slave_monitor.sv(84) @ 105: uvm_test_top.tb.env.slave_agent.monitor [ahb_slave_monitor] Packet Collected :
# ------------------------------------------------------------------
# Name                     Type                     Size  Value     
# ------------------------------------------------------------------
# ahb_slave_sequence_item  ahb_slave_sequence_item  -     @793      
#   haddr                  integral                 32    'h484     
#   hwrite                 integral                 1     'h1       
#   hburst                 burst_t                  3     INCR16    
#   hsize                  hsize_t                  3     HSIZE_BYTE
#   htrans                 htrans_t                 2     SEQ       
#   hwdata                 integral                 32    'h1ceb243b
#   hrdata                 integral                 32    'h0       
#   hready                 integral                 1     'h0X      
#   hresp                  integral                 1     'h0       
# ------------------------------------------------------------------
# 
# [COVER] OKAY COMPLETE observed
# UVM_INFO .\TB\sv\ahb_slave_monitor.sv(84) @ 115: uvm_test_top.tb.env.slave_agent.monitor [ahb_slave_monitor] Packet Collected :
# ------------------------------------------------------------------
# Name                     Type                     Size  Value     
# ------------------------------------------------------------------
# ahb_slave_sequence_item  ahb_slave_sequence_item  -     @817      
#   haddr                  integral                 32    'h485     
#   hwrite                 integral                 1     'h1       
#   hburst                 burst_t                  3     INCR16    
#   hsize                  hsize_t                  3     HSIZE_BYTE
#   htrans                 htrans_t                 2     SEQ       
#   hwdata                 integral                 32    'h1ceb243c
#   hrdata                 integral                 32    'h0       
#   hready                 integral                 1     'h0X      
#   hresp                  integral                 1     'h0       
# ------------------------------------------------------------------
# 
# UVM_INFO .\TB\sv\ahb_master_monitor.sv(74) @ 115: uvm_test_top.tb.env.master_agent.monitor [ahb_master_monitor] Packet Collected :
# --------------------------------------------------------------------
# Name                      Type                      Size  Value     
# --------------------------------------------------------------------
# ahb_master_sequence_item  ahb_master_sequence_item  -     @809      
#   i_addr                  integral                  32    'h0       
#   i_data                  integral                  32    'h1ceb243c
#   i_burst_type            burst_t                   3     INCR16    
#   i_data_size             hsize_t                   3     HSIZE_BYTE
#   haddr                   integral                  32    'h485     
#   i_write                 integral                  1     'h1       
#   i_wrap_en               integral                  1     'h0X      
#   i_busy                  integral                  1     'h0X      
# --------------------------------------------------------------------
# 
# [COVER] OKAY COMPLETE observed
# UVM_INFO .\TB\sv\ahb_master_monitor.sv(74) @ 125: uvm_test_top.tb.env.master_agent.monitor [ahb_master_monitor] Packet Collected :
# --------------------------------------------------------------------
# Name                      Type                      Size  Value     
# --------------------------------------------------------------------
# ahb_master_sequence_item  ahb_master_sequence_item  -     @833      
#   i_addr                  integral                  32    'h0       
#   i_data                  integral                  32    'h1ceb243d
#   i_burst_type            burst_t                   3     INCR16    
#   i_data_size             hsize_t                   3     HSIZE_BYTE
#   haddr                   integral                  32    'h486     
#   i_write                 integral                  1     'h1       
#   i_wrap_en               integral                  1     'h0X      
#   i_busy                  integral                  1     'h0X      
# --------------------------------------------------------------------
# 
# UVM_INFO .\TB\sv\ahb_slave_monitor.sv(84) @ 125: uvm_test_top.tb.env.slave_agent.monitor [ahb_slave_monitor] Packet Collected :
# ------------------------------------------------------------------
# Name                     Type                     Size  Value     
# ------------------------------------------------------------------
# ahb_slave_sequence_item  ahb_slave_sequence_item  -     @825      
#   haddr                  integral                 32    'h486     
#   hwrite                 integral                 1     'h1       
#   hburst                 burst_t                  3     INCR16    
#   hsize                  hsize_t                  3     HSIZE_BYTE
#   htrans                 htrans_t                 2     SEQ       
#   hwdata                 integral                 32    'h1ceb243d
#   hrdata                 integral                 32    'h0       
#   hready                 integral                 1     'h0X      
#   hresp                  integral                 1     'h0       
# ------------------------------------------------------------------
# 
# [COVER] OKAY COMPLETE observed
# UVM_INFO .\TB\sv\ahb_slave_monitor.sv(84) @ 135: uvm_test_top.tb.env.slave_agent.monitor [ahb_slave_monitor] Packet Collected :
# ------------------------------------------------------------------
# Name                     Type                     Size  Value     
# ------------------------------------------------------------------
# ahb_slave_sequence_item  ahb_slave_sequence_item  -     @849      
#   haddr                  integral                 32    'h487     
#   hwrite                 integral                 1     'h1       
#   hburst                 burst_t                  3     INCR16    
#   hsize                  hsize_t                  3     HSIZE_BYTE
#   htrans                 htrans_t                 2     SEQ       
#   hwdata                 integral                 32    'h1ceb243e
#   hrdata                 integral                 32    'h0       
#   hready                 integral                 1     'h0X      
#   hresp                  integral                 1     'h0       
# ------------------------------------------------------------------
# 
# UVM_INFO .\TB\sv\ahb_master_monitor.sv(74) @ 135: uvm_test_top.tb.env.master_agent.monitor [ahb_master_monitor] Packet Collected :
# --------------------------------------------------------------------
# Name                      Type                      Size  Value     
# --------------------------------------------------------------------
# ahb_master_sequence_item  ahb_master_sequence_item  -     @841      
#   i_addr                  integral                  32    'h0       
#   i_data                  integral                  32    'h1ceb243e
#   i_burst_type            burst_t                   3     INCR16    
#   i_data_size             hsize_t                   3     HSIZE_BYTE
#   haddr                   integral                  32    'h487     
#   i_write                 integral                  1     'h1       
#   i_wrap_en               integral                  1     'h0X      
#   i_busy                  integral                  1     'h0X      
# --------------------------------------------------------------------
# 
# [COVER] OKAY COMPLETE observed
# UVM_INFO .\TB\sv\ahb_master_monitor.sv(74) @ 145: uvm_test_top.tb.env.master_agent.monitor [ahb_master_monitor] Packet Collected :
# --------------------------------------------------------------------
# Name                      Type                      Size  Value     
# --------------------------------------------------------------------
# ahb_master_sequence_item  ahb_master_sequence_item  -     @865      
#   i_addr                  integral                  32    'h0       
#   i_data                  integral                  32    'h1ceb243f
#   i_burst_type            burst_t                   3     INCR16    
#   i_data_size             hsize_t                   3     HSIZE_BYTE
#   haddr                   integral                  32    'h488     
#   i_write                 integral                  1     'h1       
#   i_wrap_en               integral                  1     'h0X      
#   i_busy                  integral                  1     'h0X      
# --------------------------------------------------------------------
# 
# UVM_INFO .\TB\sv\ahb_slave_monitor.sv(84) @ 145: uvm_test_top.tb.env.slave_agent.monitor [ahb_slave_monitor] Packet Collected :
# ------------------------------------------------------------------
# Name                     Type                     Size  Value     
# ------------------------------------------------------------------
# ahb_slave_sequence_item  ahb_slave_sequence_item  -     @857      
#   haddr                  integral                 32    'h488     
#   hwrite                 integral                 1     'h1       
#   hburst                 burst_t                  3     INCR16    
#   hsize                  hsize_t                  3     HSIZE_BYTE
#   htrans                 htrans_t                 2     SEQ       
#   hwdata                 integral                 32    'h1ceb243f
#   hrdata                 integral                 32    'h0       
#   hready                 integral                 1     'h0X      
#   hresp                  integral                 1     'h0       
# ------------------------------------------------------------------
# 
# [COVER] OKAY COMPLETE observed
# UVM_INFO .\TB\sv\ahb_slave_monitor.sv(84) @ 155: uvm_test_top.tb.env.slave_agent.monitor [ahb_slave_monitor] Packet Collected :
# ------------------------------------------------------------------
# Name                     Type                     Size  Value     
# ------------------------------------------------------------------
# ahb_slave_sequence_item  ahb_slave_sequence_item  -     @881      
#   haddr                  integral                 32    'h489     
#   hwrite                 integral                 1     'h1       
#   hburst                 burst_t                  3     INCR16    
#   hsize                  hsize_t                  3     HSIZE_BYTE
#   htrans                 htrans_t                 2     SEQ       
#   hwdata                 integral                 32    'h1ceb2440
#   hrdata                 integral                 32    'h0       
#   hready                 integral                 1     'h0X      
#   hresp                  integral                 1     'h0       
# ------------------------------------------------------------------
# 
# UVM_INFO .\TB\sv\ahb_master_monitor.sv(74) @ 155: uvm_test_top.tb.env.master_agent.monitor [ahb_master_monitor] Packet Collected :
# --------------------------------------------------------------------
# Name                      Type                      Size  Value     
# --------------------------------------------------------------------
# ahb_master_sequence_item  ahb_master_sequence_item  -     @873      
#   i_addr                  integral                  32    'h0       
#   i_data                  integral                  32    'h1ceb2440
#   i_burst_type            burst_t                   3     INCR16    
#   i_data_size             hsize_t                   3     HSIZE_BYTE
#   haddr                   integral                  32    'h489     
#   i_write                 integral                  1     'h1       
#   i_wrap_en               integral                  1     'h0X      
#   i_busy                  integral                  1     'h0X      
# --------------------------------------------------------------------
# 
# [COVER] OKAY COMPLETE observed
# UVM_INFO .\TB\sv\ahb_master_monitor.sv(74) @ 165: uvm_test_top.tb.env.master_agent.monitor [ahb_master_monitor] Packet Collected :
# --------------------------------------------------------------------
# Name                      Type                      Size  Value     
# --------------------------------------------------------------------
# ahb_master_sequence_item  ahb_master_sequence_item  -     @897      
#   i_addr                  integral                  32    'h0       
#   i_data                  integral                  32    'h1ceb2441
#   i_burst_type            burst_t                   3     INCR16    
#   i_data_size             hsize_t                   3     HSIZE_BYTE
#   haddr                   integral                  32    'h48a     
#   i_write                 integral                  1     'h1       
#   i_wrap_en               integral                  1     'h0X      
#   i_busy                  integral                  1     'h0X      
# --------------------------------------------------------------------
# 
# UVM_INFO .\TB\sv\ahb_slave_monitor.sv(84) @ 165: uvm_test_top.tb.env.slave_agent.monitor [ahb_slave_monitor] Packet Collected :
# ------------------------------------------------------------------
# Name                     Type                     Size  Value     
# ------------------------------------------------------------------
# ahb_slave_sequence_item  ahb_slave_sequence_item  -     @889      
#   haddr                  integral                 32    'h48a     
#   hwrite                 integral                 1     'h1       
#   hburst                 burst_t                  3     INCR16    
#   hsize                  hsize_t                  3     HSIZE_BYTE
#   htrans                 htrans_t                 2     SEQ       
#   hwdata                 integral                 32    'h1ceb2441
#   hrdata                 integral                 32    'h0       
#   hready                 integral                 1     'h0X      
#   hresp                  integral                 1     'h0       
# ------------------------------------------------------------------
# 
# [COVER] OKAY COMPLETE observed
# UVM_INFO .\TB\sv\ahb_slave_monitor.sv(84) @ 175: uvm_test_top.tb.env.slave_agent.monitor [ahb_slave_monitor] Packet Collected :
# ------------------------------------------------------------------
# Name                     Type                     Size  Value     
# ------------------------------------------------------------------
# ahb_slave_sequence_item  ahb_slave_sequence_item  -     @913      
#   haddr                  integral                 32    'h48b     
#   hwrite                 integral                 1     'h1       
#   hburst                 burst_t                  3     INCR16    
#   hsize                  hsize_t                  3     HSIZE_BYTE
#   htrans                 htrans_t                 2     SEQ       
#   hwdata                 integral                 32    'h1ceb2442
#   hrdata                 integral                 32    'h0       
#   hready                 integral                 1     'h0X      
#   hresp                  integral                 1     'h0       
# ------------------------------------------------------------------
# 
# UVM_INFO .\TB\sv\ahb_master_monitor.sv(74) @ 175: uvm_test_top.tb.env.master_agent.monitor [ahb_master_monitor] Packet Collected :
# --------------------------------------------------------------------
# Name                      Type                      Size  Value     
# --------------------------------------------------------------------
# ahb_master_sequence_item  ahb_master_sequence_item  -     @905      
#   i_addr                  integral                  32    'h0       
#   i_data                  integral                  32    'h1ceb2442
#   i_burst_type            burst_t                   3     INCR16    
#   i_data_size             hsize_t                   3     HSIZE_BYTE
#   haddr                   integral                  32    'h48b     
#   i_write                 integral                  1     'h1       
#   i_wrap_en               integral                  1     'h0X      
#   i_busy                  integral                  1     'h0X      
# --------------------------------------------------------------------
# 
# [COVER] OKAY COMPLETE observed
# UVM_INFO .\TB\sv\ahb_master_monitor.sv(74) @ 185: uvm_test_top.tb.env.master_agent.monitor [ahb_master_monitor] Packet Collected :
# --------------------------------------------------------------------
# Name                      Type                      Size  Value     
# --------------------------------------------------------------------
# ahb_master_sequence_item  ahb_master_sequence_item  -     @929      
#   i_addr                  integral                  32    'h0       
#   i_data                  integral                  32    'h1ceb2443
#   i_burst_type            burst_t                   3     INCR16    
#   i_data_size             hsize_t                   3     HSIZE_BYTE
#   haddr                   integral                  32    'h48c     
#   i_write                 integral                  1     'h1       
#   i_wrap_en               integral                  1     'h0X      
#   i_busy                  integral                  1     'h0X      
# --------------------------------------------------------------------
# 
# UVM_INFO .\TB\sv\ahb_slave_monitor.sv(84) @ 185: uvm_test_top.tb.env.slave_agent.monitor [ahb_slave_monitor] Packet Collected :
# ------------------------------------------------------------------
# Name                     Type                     Size  Value     
# ------------------------------------------------------------------
# ahb_slave_sequence_item  ahb_slave_sequence_item  -     @921      
#   haddr                  integral                 32    'h48c     
#   hwrite                 integral                 1     'h1       
#   hburst                 burst_t                  3     INCR16    
#   hsize                  hsize_t                  3     HSIZE_BYTE
#   htrans                 htrans_t                 2     SEQ       
#   hwdata                 integral                 32    'h1ceb2443
#   hrdata                 integral                 32    'h0       
#   hready                 integral                 1     'h0X      
#   hresp                  integral                 1     'h0       
# ------------------------------------------------------------------
# 
# [COVER] OKAY COMPLETE observed
# UVM_INFO .\TB\sv\ahb_slave_monitor.sv(84) @ 195: uvm_test_top.tb.env.slave_agent.monitor [ahb_slave_monitor] Packet Collected :
# ------------------------------------------------------------------
# Name                     Type                     Size  Value     
# ------------------------------------------------------------------
# ahb_slave_sequence_item  ahb_slave_sequence_item  -     @945      
#   haddr                  integral                 32    'h48d     
#   hwrite                 integral                 1     'h1       
#   hburst                 burst_t                  3     INCR16    
#   hsize                  hsize_t                  3     HSIZE_BYTE
#   htrans                 htrans_t                 2     SEQ       
#   hwdata                 integral                 32    'h1ceb2444
#   hrdata                 integral                 32    'h0       
#   hready                 integral                 1     'h0X      
#   hresp                  integral                 1     'h0       
# ------------------------------------------------------------------
# 
# UVM_INFO .\TB\sv\ahb_master_monitor.sv(74) @ 195: uvm_test_top.tb.env.master_agent.monitor [ahb_master_monitor] Packet Collected :
# --------------------------------------------------------------------
# Name                      Type                      Size  Value     
# --------------------------------------------------------------------
# ahb_master_sequence_item  ahb_master_sequence_item  -     @937      
#   i_addr                  integral                  32    'h0       
#   i_data                  integral                  32    'h1ceb2444
#   i_burst_type            burst_t                   3     INCR16    
#   i_data_size             hsize_t                   3     HSIZE_BYTE
#   haddr                   integral                  32    'h48d     
#   i_write                 integral                  1     'h1       
#   i_wrap_en               integral                  1     'h0X      
#   i_busy                  integral                  1     'h0X      
# --------------------------------------------------------------------
# 
# [COVER] OKAY COMPLETE observed
# UVM_INFO .\TB\sv\ahb_master_monitor.sv(74) @ 205: uvm_test_top.tb.env.master_agent.monitor [ahb_master_monitor] Packet Collected :
# --------------------------------------------------------------------
# Name                      Type                      Size  Value     
# --------------------------------------------------------------------
# ahb_master_sequence_item  ahb_master_sequence_item  -     @961      
#   i_addr                  integral                  32    'h0       
#   i_data                  integral                  32    'h1ceb2445
#   i_burst_type            burst_t                   3     INCR16    
#   i_data_size             hsize_t                   3     HSIZE_BYTE
#   haddr                   integral                  32    'h48e     
#   i_write                 integral                  1     'h1       
#   i_wrap_en               integral                  1     'h0X      
#   i_busy                  integral                  1     'h0X      
# --------------------------------------------------------------------
# 
# UVM_INFO .\TB\sv\ahb_slave_monitor.sv(84) @ 205: uvm_test_top.tb.env.slave_agent.monitor [ahb_slave_monitor] Packet Collected :
# ------------------------------------------------------------------
# Name                     Type                     Size  Value     
# ------------------------------------------------------------------
# ahb_slave_sequence_item  ahb_slave_sequence_item  -     @953      
#   haddr                  integral                 32    'h48e     
#   hwrite                 integral                 1     'h1       
#   hburst                 burst_t                  3     INCR16    
#   hsize                  hsize_t                  3     HSIZE_BYTE
#   htrans                 htrans_t                 2     SEQ       
#   hwdata                 integral                 32    'h1ceb2445
#   hrdata                 integral                 32    'h0       
#   hready                 integral                 1     'h0X      
#   hresp                  integral                 1     'h0       
# ------------------------------------------------------------------
# 
# [COVER] OKAY COMPLETE observed
# UVM_INFO .\TB\sv\ahb_slave_monitor.sv(84) @ 215: uvm_test_top.tb.env.slave_agent.monitor [ahb_slave_monitor] Packet Collected :
# ------------------------------------------------------------------
# Name                     Type                     Size  Value     
# ------------------------------------------------------------------
# ahb_slave_sequence_item  ahb_slave_sequence_item  -     @977      
#   haddr                  integral                 32    'h48f     
#   hwrite                 integral                 1     'h1       
#   hburst                 burst_t                  3     INCR16    
#   hsize                  hsize_t                  3     HSIZE_BYTE
#   htrans                 htrans_t                 2     SEQ       
#   hwdata                 integral                 32    'h1ceb2446
#   hrdata                 integral                 32    'h0       
#   hready                 integral                 1     'h0X      
#   hresp                  integral                 1     'h0       
# ------------------------------------------------------------------
# 
# UVM_INFO .\TB\sv\ahb_master_monitor.sv(74) @ 215: uvm_test_top.tb.env.master_agent.monitor [ahb_master_monitor] Packet Collected :
# --------------------------------------------------------------------
# Name                      Type                      Size  Value     
# --------------------------------------------------------------------
# ahb_master_sequence_item  ahb_master_sequence_item  -     @969      
#   i_addr                  integral                  32    'h0       
#   i_data                  integral                  32    'h1ceb2446
#   i_burst_type            burst_t                   3     INCR16    
#   i_data_size             hsize_t                   3     HSIZE_BYTE
#   haddr                   integral                  32    'h48f     
#   i_write                 integral                  1     'h1       
#   i_wrap_en               integral                  1     'h0X      
#   i_busy                  integral                  1     'h0X      
# --------------------------------------------------------------------
# 
# [COVER] OKAY COMPLETE observed
# UVM_INFO .\TB\sv\ahb_master_monitor.sv(74) @ 225: uvm_test_top.tb.env.master_agent.monitor [ahb_master_monitor] Packet Collected :
# --------------------------------------------------------------------
# Name                      Type                      Size  Value     
# --------------------------------------------------------------------
# ahb_master_sequence_item  ahb_master_sequence_item  -     @993      
#   i_addr                  integral                  32    'h0       
#   i_data                  integral                  32    'h1ceb2447
#   i_burst_type            burst_t                   3     INCR16    
#   i_data_size             hsize_t                   3     HSIZE_BYTE
#   haddr                   integral                  32    'h490     
#   i_write                 integral                  1     'h1       
#   i_wrap_en               integral                  1     'h0X      
#   i_busy                  integral                  1     'h0X      
# --------------------------------------------------------------------
# 
# UVM_INFO .\TB\sv\ahb_slave_monitor.sv(84) @ 225: uvm_test_top.tb.env.slave_agent.monitor [ahb_slave_monitor] Packet Collected :
# ------------------------------------------------------------------
# Name                     Type                     Size  Value     
# ------------------------------------------------------------------
# ahb_slave_sequence_item  ahb_slave_sequence_item  -     @985      
#   haddr                  integral                 32    'h490     
#   hwrite                 integral                 1     'h1       
#   hburst                 burst_t                  3     INCR16    
#   hsize                  hsize_t                  3     HSIZE_BYTE
#   htrans                 htrans_t                 2     SEQ       
#   hwdata                 integral                 32    'h1ceb2447
#   hrdata                 integral                 32    'h0       
#   hready                 integral                 1     'h0X      
#   hresp                  integral                 1     'h0       
# ------------------------------------------------------------------
# 
# [COVER] OKAY COMPLETE observed
# [COVER] OKAY COMPLETE observed
# [COVER] OKAY COMPLETE observed
# [COVER] OKAY COMPLETE observed
# [COVER] OKAY COMPLETE observed
# Master First time Sample
# UVM_INFO .\TB\sv\ahb_master_monitor.sv(74) @ 275: uvm_test_top.tb.env.master_agent.monitor [ahb_master_monitor] Packet Collected :
# --------------------------------------------------------------------
# Name                      Type                      Size  Value     
# --------------------------------------------------------------------
# ahb_master_sequence_item  ahb_master_sequence_item  -     @1001     
#   i_addr                  integral                  32    'h0       
#   i_data                  integral                  32    'h1ceb2447
#   i_burst_type            burst_t                   3     INCR16    
#   i_data_size             hsize_t                   3     HSIZE_BYTE
#   haddr                   integral                  32    'h481     
#   i_write                 integral                  1     'h0       
#   i_wrap_en               integral                  1     'h0X      
#   i_busy                  integral                  1     'h0X      
# --------------------------------------------------------------------
# 
# Slave First time Sample
# UVM_INFO .\TB\sv\ahb_slave_monitor.sv(84) @ 275: uvm_test_top.tb.env.slave_agent.monitor [ahb_slave_monitor] Packet Collected :
# ------------------------------------------------------------------
# Name                     Type                     Size  Value     
# ------------------------------------------------------------------
# ahb_slave_sequence_item  ahb_slave_sequence_item  -     @1009     
#   haddr                  integral                 32    'h481     
#   hwrite                 integral                 1     'h0       
#   hburst                 burst_t                  3     INCR16    
#   hsize                  hsize_t                  3     HSIZE_BYTE
#   htrans                 htrans_t                 2     NONSEQ    
#   hwdata                 integral                 32    'h0       
#   hrdata                 integral                 32    'h38000000
#   hready                 integral                 1     'h0X      
#   hresp                  integral                 1     'h0       
# ------------------------------------------------------------------
# 
# [COVER] OKAY COMPLETE observed
# UVM_INFO .\TB\sv\ahb_slave_monitor.sv(84) @ 285: uvm_test_top.tb.env.slave_agent.monitor [ahb_slave_monitor] Packet Collected :
# ------------------------------------------------------------------
# Name                     Type                     Size  Value     
# ------------------------------------------------------------------
# ahb_slave_sequence_item  ahb_slave_sequence_item  -     @1025     
#   haddr                  integral                 32    'h482     
#   hwrite                 integral                 1     'h0       
#   hburst                 burst_t                  3     INCR16    
#   hsize                  hsize_t                  3     HSIZE_BYTE
#   htrans                 htrans_t                 2     SEQ       
#   hwdata                 integral                 32    'h0       
#   hrdata                 integral                 32    'h39000000
#   hready                 integral                 1     'h0X      
#   hresp                  integral                 1     'h0       
# ------------------------------------------------------------------
# 
# UVM_INFO .\TB\sv\ahb_master_monitor.sv(74) @ 285: uvm_test_top.tb.env.master_agent.monitor [ahb_master_monitor] Packet Collected :
# --------------------------------------------------------------------
# Name                      Type                      Size  Value     
# --------------------------------------------------------------------
# ahb_master_sequence_item  ahb_master_sequence_item  -     @1017     
#   i_addr                  integral                  32    'h0       
#   i_data                  integral                  32    'h1ceb2447
#   i_burst_type            burst_t                   3     INCR16    
#   i_data_size             hsize_t                   3     HSIZE_BYTE
#   haddr                   integral                  32    'h482     
#   i_write                 integral                  1     'h0       
#   i_wrap_en               integral                  1     'h0X      
#   i_busy                  integral                  1     'h0X      
# --------------------------------------------------------------------
# 
# [COVER] OKAY COMPLETE observed
# UVM_INFO .\TB\sv\ahb_master_monitor.sv(74) @ 295: uvm_test_top.tb.env.master_agent.monitor [ahb_master_monitor] Packet Collected :
# --------------------------------------------------------------------
# Name                      Type                      Size  Value     
# --------------------------------------------------------------------
# ahb_master_sequence_item  ahb_master_sequence_item  -     @1041     
#   i_addr                  integral                  32    'h0       
#   i_data                  integral                  32    'h1ceb2447
#   i_burst_type            burst_t                   3     INCR16    
#   i_data_size             hsize_t                   3     HSIZE_BYTE
#   haddr                   integral                  32    'h483     
#   i_write                 integral                  1     'h0       
#   i_wrap_en               integral                  1     'h0X      
#   i_busy                  integral                  1     'h0X      
# --------------------------------------------------------------------
# 
# UVM_INFO .\TB\sv\ahb_slave_monitor.sv(84) @ 295: uvm_test_top.tb.env.slave_agent.monitor [ahb_slave_monitor] Packet Collected :
# ------------------------------------------------------------------
# Name                     Type                     Size  Value     
# ------------------------------------------------------------------
# ahb_slave_sequence_item  ahb_slave_sequence_item  -     @1033     
#   haddr                  integral                 32    'h483     
#   hwrite                 integral                 1     'h0       
#   hburst                 burst_t                  3     INCR16    
#   hsize                  hsize_t                  3     HSIZE_BYTE
#   htrans                 htrans_t                 2     SEQ       
#   hwdata                 integral                 32    'h0       
#   hrdata                 integral                 32    'h3a000000
#   hready                 integral                 1     'h0X      
#   hresp                  integral                 1     'h0       
# ------------------------------------------------------------------
# 
# [COVER] OKAY COMPLETE observed
# UVM_INFO .\TB\sv\ahb_slave_monitor.sv(84) @ 305: uvm_test_top.tb.env.slave_agent.monitor [ahb_slave_monitor] Packet Collected :
# ------------------------------------------------------------------
# Name                     Type                     Size  Value     
# ------------------------------------------------------------------
# ahb_slave_sequence_item  ahb_slave_sequence_item  -     @1057     
#   haddr                  integral                 32    'h484     
#   hwrite                 integral                 1     'h0       
#   hburst                 burst_t                  3     INCR16    
#   hsize                  hsize_t                  3     HSIZE_BYTE
#   htrans                 htrans_t                 2     SEQ       
#   hwdata                 integral                 32    'h0       
#   hrdata                 integral                 32    'h3b000000
#   hready                 integral                 1     'h0X      
#   hresp                  integral                 1     'h0       
# ------------------------------------------------------------------
# 
# UVM_INFO .\TB\sv\ahb_master_monitor.sv(74) @ 305: uvm_test_top.tb.env.master_agent.monitor [ahb_master_monitor] Packet Collected :
# --------------------------------------------------------------------
# Name                      Type                      Size  Value     
# --------------------------------------------------------------------
# ahb_master_sequence_item  ahb_master_sequence_item  -     @1049     
#   i_addr                  integral                  32    'h0       
#   i_data                  integral                  32    'h1ceb2447
#   i_burst_type            burst_t                   3     INCR16    
#   i_data_size             hsize_t                   3     HSIZE_BYTE
#   haddr                   integral                  32    'h484     
#   i_write                 integral                  1     'h0       
#   i_wrap_en               integral                  1     'h0X      
#   i_busy                  integral                  1     'h0X      
# --------------------------------------------------------------------
# 
# [COVER] OKAY COMPLETE observed
# UVM_INFO .\TB\sv\ahb_master_monitor.sv(74) @ 315: uvm_test_top.tb.env.master_agent.monitor [ahb_master_monitor] Packet Collected :
# --------------------------------------------------------------------
# Name                      Type                      Size  Value     
# --------------------------------------------------------------------
# ahb_master_sequence_item  ahb_master_sequence_item  -     @1073     
#   i_addr                  integral                  32    'h0       
#   i_data                  integral                  32    'h1ceb2447
#   i_burst_type            burst_t                   3     INCR16    
#   i_data_size             hsize_t                   3     HSIZE_BYTE
#   haddr                   integral                  32    'h485     
#   i_write                 integral                  1     'h0       
#   i_wrap_en               integral                  1     'h0X      
#   i_busy                  integral                  1     'h0X      
# --------------------------------------------------------------------
# 
# UVM_INFO .\TB\sv\ahb_slave_monitor.sv(84) @ 315: uvm_test_top.tb.env.slave_agent.monitor [ahb_slave_monitor] Packet Collected :
# ------------------------------------------------------------------
# Name                     Type                     Size  Value     
# ------------------------------------------------------------------
# ahb_slave_sequence_item  ahb_slave_sequence_item  -     @1065     
#   haddr                  integral                 32    'h485     
#   hwrite                 integral                 1     'h0       
#   hburst                 burst_t                  3     INCR16    
#   hsize                  hsize_t                  3     HSIZE_BYTE
#   htrans                 htrans_t                 2     SEQ       
#   hwdata                 integral                 32    'h0       
#   hrdata                 integral                 32    'h3c000000
#   hready                 integral                 1     'h0X      
#   hresp                  integral                 1     'h0       
# ------------------------------------------------------------------
# 
# [COVER] OKAY COMPLETE observed
# UVM_INFO .\TB\sv\ahb_slave_monitor.sv(84) @ 325: uvm_test_top.tb.env.slave_agent.monitor [ahb_slave_monitor] Packet Collected :
# ------------------------------------------------------------------
# Name                     Type                     Size  Value     
# ------------------------------------------------------------------
# ahb_slave_sequence_item  ahb_slave_sequence_item  -     @1089     
#   haddr                  integral                 32    'h486     
#   hwrite                 integral                 1     'h0       
#   hburst                 burst_t                  3     INCR16    
#   hsize                  hsize_t                  3     HSIZE_BYTE
#   htrans                 htrans_t                 2     SEQ       
#   hwdata                 integral                 32    'h0       
#   hrdata                 integral                 32    'h3d000000
#   hready                 integral                 1     'h0X      
#   hresp                  integral                 1     'h0       
# ------------------------------------------------------------------
# 
# UVM_INFO .\TB\sv\ahb_master_monitor.sv(74) @ 325: uvm_test_top.tb.env.master_agent.monitor [ahb_master_monitor] Packet Collected :
# --------------------------------------------------------------------
# Name                      Type                      Size  Value     
# --------------------------------------------------------------------
# ahb_master_sequence_item  ahb_master_sequence_item  -     @1081     
#   i_addr                  integral                  32    'h0       
#   i_data                  integral                  32    'h1ceb2447
#   i_burst_type            burst_t                   3     INCR16    
#   i_data_size             hsize_t                   3     HSIZE_BYTE
#   haddr                   integral                  32    'h486     
#   i_write                 integral                  1     'h0       
#   i_wrap_en               integral                  1     'h0X      
#   i_busy                  integral                  1     'h0X      
# --------------------------------------------------------------------
# 
# [COVER] OKAY COMPLETE observed
# UVM_INFO .\TB\sv\ahb_master_monitor.sv(74) @ 335: uvm_test_top.tb.env.master_agent.monitor [ahb_master_monitor] Packet Collected :
# --------------------------------------------------------------------
# Name                      Type                      Size  Value     
# --------------------------------------------------------------------
# ahb_master_sequence_item  ahb_master_sequence_item  -     @1105     
#   i_addr                  integral                  32    'h0       
#   i_data                  integral                  32    'h1ceb2447
#   i_burst_type            burst_t                   3     INCR16    
#   i_data_size             hsize_t                   3     HSIZE_BYTE
#   haddr                   integral                  32    'h487     
#   i_write                 integral                  1     'h0       
#   i_wrap_en               integral                  1     'h0X      
#   i_busy                  integral                  1     'h0X      
# --------------------------------------------------------------------
# 
# UVM_INFO .\TB\sv\ahb_slave_monitor.sv(84) @ 335: uvm_test_top.tb.env.slave_agent.monitor [ahb_slave_monitor] Packet Collected :
# ------------------------------------------------------------------
# Name                     Type                     Size  Value     
# ------------------------------------------------------------------
# ahb_slave_sequence_item  ahb_slave_sequence_item  -     @1097     
#   haddr                  integral                 32    'h487     
#   hwrite                 integral                 1     'h0       
#   hburst                 burst_t                  3     INCR16    
#   hsize                  hsize_t                  3     HSIZE_BYTE
#   htrans                 htrans_t                 2     SEQ       
#   hwdata                 integral                 32    'h0       
#   hrdata                 integral                 32    'h3e000000
#   hready                 integral                 1     'h0X      
#   hresp                  integral                 1     'h0       
# ------------------------------------------------------------------
# 
# [COVER] OKAY COMPLETE observed
# UVM_INFO .\TB\sv\ahb_slave_monitor.sv(84) @ 345: uvm_test_top.tb.env.slave_agent.monitor [ahb_slave_monitor] Packet Collected :
# ------------------------------------------------------------------
# Name                     Type                     Size  Value     
# ------------------------------------------------------------------
# ahb_slave_sequence_item  ahb_slave_sequence_item  -     @1121     
#   haddr                  integral                 32    'h488     
#   hwrite                 integral                 1     'h0       
#   hburst                 burst_t                  3     INCR16    
#   hsize                  hsize_t                  3     HSIZE_BYTE
#   htrans                 htrans_t                 2     SEQ       
#   hwdata                 integral                 32    'h0       
#   hrdata                 integral                 32    'h3f000000
#   hready                 integral                 1     'h0X      
#   hresp                  integral                 1     'h0       
# ------------------------------------------------------------------
# 
# UVM_INFO .\TB\sv\ahb_master_monitor.sv(74) @ 345: uvm_test_top.tb.env.master_agent.monitor [ahb_master_monitor] Packet Collected :
# --------------------------------------------------------------------
# Name                      Type                      Size  Value     
# --------------------------------------------------------------------
# ahb_master_sequence_item  ahb_master_sequence_item  -     @1113     
#   i_addr                  integral                  32    'h0       
#   i_data                  integral                  32    'h1ceb2447
#   i_burst_type            burst_t                   3     INCR16    
#   i_data_size             hsize_t                   3     HSIZE_BYTE
#   haddr                   integral                  32    'h488     
#   i_write                 integral                  1     'h0       
#   i_wrap_en               integral                  1     'h0X      
#   i_busy                  integral                  1     'h0X      
# --------------------------------------------------------------------
# 
# [COVER] OKAY COMPLETE observed
# UVM_INFO .\TB\sv\ahb_master_monitor.sv(74) @ 355: uvm_test_top.tb.env.master_agent.monitor [ahb_master_monitor] Packet Collected :
# --------------------------------------------------------------------
# Name                      Type                      Size  Value     
# --------------------------------------------------------------------
# ahb_master_sequence_item  ahb_master_sequence_item  -     @1137     
#   i_addr                  integral                  32    'h0       
#   i_data                  integral                  32    'h1ceb2447
#   i_burst_type            burst_t                   3     INCR16    
#   i_data_size             hsize_t                   3     HSIZE_BYTE
#   haddr                   integral                  32    'h489     
#   i_write                 integral                  1     'h0       
#   i_wrap_en               integral                  1     'h0X      
#   i_busy                  integral                  1     'h0X      
# --------------------------------------------------------------------
# 
# UVM_INFO .\TB\sv\ahb_slave_monitor.sv(84) @ 355: uvm_test_top.tb.env.slave_agent.monitor [ahb_slave_monitor] Packet Collected :
# ------------------------------------------------------------------
# Name                     Type                     Size  Value     
# ------------------------------------------------------------------
# ahb_slave_sequence_item  ahb_slave_sequence_item  -     @1129     
#   haddr                  integral                 32    'h489     
#   hwrite                 integral                 1     'h0       
#   hburst                 burst_t                  3     INCR16    
#   hsize                  hsize_t                  3     HSIZE_BYTE
#   htrans                 htrans_t                 2     SEQ       
#   hwdata                 integral                 32    'h0       
#   hrdata                 integral                 32    'h40000000
#   hready                 integral                 1     'h0X      
#   hresp                  integral                 1     'h0       
# ------------------------------------------------------------------
# 
# [COVER] OKAY COMPLETE observed
# UVM_INFO .\TB\sv\ahb_slave_monitor.sv(84) @ 365: uvm_test_top.tb.env.slave_agent.monitor [ahb_slave_monitor] Packet Collected :
# ------------------------------------------------------------------
# Name                     Type                     Size  Value     
# ------------------------------------------------------------------
# ahb_slave_sequence_item  ahb_slave_sequence_item  -     @1153     
#   haddr                  integral                 32    'h48a     
#   hwrite                 integral                 1     'h0       
#   hburst                 burst_t                  3     INCR16    
#   hsize                  hsize_t                  3     HSIZE_BYTE
#   htrans                 htrans_t                 2     SEQ       
#   hwdata                 integral                 32    'h0       
#   hrdata                 integral                 32    'h41000000
#   hready                 integral                 1     'h0X      
#   hresp                  integral                 1     'h0       
# ------------------------------------------------------------------
# 
# UVM_INFO .\TB\sv\ahb_master_monitor.sv(74) @ 365: uvm_test_top.tb.env.master_agent.monitor [ahb_master_monitor] Packet Collected :
# --------------------------------------------------------------------
# Name                      Type                      Size  Value     
# --------------------------------------------------------------------
# ahb_master_sequence_item  ahb_master_sequence_item  -     @1145     
#   i_addr                  integral                  32    'h0       
#   i_data                  integral                  32    'h1ceb2447
#   i_burst_type            burst_t                   3     INCR16    
#   i_data_size             hsize_t                   3     HSIZE_BYTE
#   haddr                   integral                  32    'h48a     
#   i_write                 integral                  1     'h0       
#   i_wrap_en               integral                  1     'h0X      
#   i_busy                  integral                  1     'h0X      
# --------------------------------------------------------------------
# 
# [COVER] OKAY COMPLETE observed
# UVM_INFO .\TB\sv\ahb_master_monitor.sv(74) @ 375: uvm_test_top.tb.env.master_agent.monitor [ahb_master_monitor] Packet Collected :
# --------------------------------------------------------------------
# Name                      Type                      Size  Value     
# --------------------------------------------------------------------
# ahb_master_sequence_item  ahb_master_sequence_item  -     @1169     
#   i_addr                  integral                  32    'h0       
#   i_data                  integral                  32    'h1ceb2447
#   i_burst_type            burst_t                   3     INCR16    
#   i_data_size             hsize_t                   3     HSIZE_BYTE
#   haddr                   integral                  32    'h48b     
#   i_write                 integral                  1     'h0       
#   i_wrap_en               integral                  1     'h0X      
#   i_busy                  integral                  1     'h0X      
# --------------------------------------------------------------------
# 
# UVM_INFO .\TB\sv\ahb_slave_monitor.sv(84) @ 375: uvm_test_top.tb.env.slave_agent.monitor [ahb_slave_monitor] Packet Collected :
# ------------------------------------------------------------------
# Name                     Type                     Size  Value     
# ------------------------------------------------------------------
# ahb_slave_sequence_item  ahb_slave_sequence_item  -     @1161     
#   haddr                  integral                 32    'h48b     
#   hwrite                 integral                 1     'h0       
#   hburst                 burst_t                  3     INCR16    
#   hsize                  hsize_t                  3     HSIZE_BYTE
#   htrans                 htrans_t                 2     SEQ       
#   hwdata                 integral                 32    'h0       
#   hrdata                 integral                 32    'h42000000
#   hready                 integral                 1     'h0X      
#   hresp                  integral                 1     'h0       
# ------------------------------------------------------------------
# 
# [COVER] OKAY COMPLETE observed
# UVM_INFO .\TB\sv\ahb_slave_monitor.sv(84) @ 385: uvm_test_top.tb.env.slave_agent.monitor [ahb_slave_monitor] Packet Collected :
# ------------------------------------------------------------------
# Name                     Type                     Size  Value     
# ------------------------------------------------------------------
# ahb_slave_sequence_item  ahb_slave_sequence_item  -     @1185     
#   haddr                  integral                 32    'h48c     
#   hwrite                 integral                 1     'h0       
#   hburst                 burst_t                  3     INCR16    
#   hsize                  hsize_t                  3     HSIZE_BYTE
#   htrans                 htrans_t                 2     SEQ       
#   hwdata                 integral                 32    'h0       
#   hrdata                 integral                 32    'h43000000
#   hready                 integral                 1     'h0X      
#   hresp                  integral                 1     'h0       
# ------------------------------------------------------------------
# 
# UVM_INFO .\TB\sv\ahb_master_monitor.sv(74) @ 385: uvm_test_top.tb.env.master_agent.monitor [ahb_master_monitor] Packet Collected :
# --------------------------------------------------------------------
# Name                      Type                      Size  Value     
# --------------------------------------------------------------------
# ahb_master_sequence_item  ahb_master_sequence_item  -     @1177     
#   i_addr                  integral                  32    'h0       
#   i_data                  integral                  32    'h1ceb2447
#   i_burst_type            burst_t                   3     INCR16    
#   i_data_size             hsize_t                   3     HSIZE_BYTE
#   haddr                   integral                  32    'h48c     
#   i_write                 integral                  1     'h0       
#   i_wrap_en               integral                  1     'h0X      
#   i_busy                  integral                  1     'h0X      
# --------------------------------------------------------------------
# 
# [COVER] OKAY COMPLETE observed
# UVM_INFO .\TB\sv\ahb_master_monitor.sv(74) @ 395: uvm_test_top.tb.env.master_agent.monitor [ahb_master_monitor] Packet Collected :
# --------------------------------------------------------------------
# Name                      Type                      Size  Value     
# --------------------------------------------------------------------
# ahb_master_sequence_item  ahb_master_sequence_item  -     @1201     
#   i_addr                  integral                  32    'h0       
#   i_data                  integral                  32    'h1ceb2447
#   i_burst_type            burst_t                   3     INCR16    
#   i_data_size             hsize_t                   3     HSIZE_BYTE
#   haddr                   integral                  32    'h48d     
#   i_write                 integral                  1     'h0       
#   i_wrap_en               integral                  1     'h0X      
#   i_busy                  integral                  1     'h0X      
# --------------------------------------------------------------------
# 
# UVM_INFO .\TB\sv\ahb_slave_monitor.sv(84) @ 395: uvm_test_top.tb.env.slave_agent.monitor [ahb_slave_monitor] Packet Collected :
# ------------------------------------------------------------------
# Name                     Type                     Size  Value     
# ------------------------------------------------------------------
# ahb_slave_sequence_item  ahb_slave_sequence_item  -     @1193     
#   haddr                  integral                 32    'h48d     
#   hwrite                 integral                 1     'h0       
#   hburst                 burst_t                  3     INCR16    
#   hsize                  hsize_t                  3     HSIZE_BYTE
#   htrans                 htrans_t                 2     SEQ       
#   hwdata                 integral                 32    'h0       
#   hrdata                 integral                 32    'h44000000
#   hready                 integral                 1     'h0X      
#   hresp                  integral                 1     'h0       
# ------------------------------------------------------------------
# 
# [COVER] OKAY COMPLETE observed
# UVM_INFO .\TB\sv\ahb_slave_monitor.sv(84) @ 405: uvm_test_top.tb.env.slave_agent.monitor [ahb_slave_monitor] Packet Collected :
# ------------------------------------------------------------------
# Name                     Type                     Size  Value     
# ------------------------------------------------------------------
# ahb_slave_sequence_item  ahb_slave_sequence_item  -     @1217     
#   haddr                  integral                 32    'h48e     
#   hwrite                 integral                 1     'h0       
#   hburst                 burst_t                  3     INCR16    
#   hsize                  hsize_t                  3     HSIZE_BYTE
#   htrans                 htrans_t                 2     SEQ       
#   hwdata                 integral                 32    'h0       
#   hrdata                 integral                 32    'h45000000
#   hready                 integral                 1     'h0X      
#   hresp                  integral                 1     'h0       
# ------------------------------------------------------------------
# 
# UVM_INFO .\TB\sv\ahb_master_monitor.sv(74) @ 405: uvm_test_top.tb.env.master_agent.monitor [ahb_master_monitor] Packet Collected :
# --------------------------------------------------------------------
# Name                      Type                      Size  Value     
# --------------------------------------------------------------------
# ahb_master_sequence_item  ahb_master_sequence_item  -     @1209     
#   i_addr                  integral                  32    'h0       
#   i_data                  integral                  32    'h1ceb2447
#   i_burst_type            burst_t                   3     INCR16    
#   i_data_size             hsize_t                   3     HSIZE_BYTE
#   haddr                   integral                  32    'h48e     
#   i_write                 integral                  1     'h0       
#   i_wrap_en               integral                  1     'h0X      
#   i_busy                  integral                  1     'h0X      
# --------------------------------------------------------------------
# 
# [COVER] OKAY COMPLETE observed
# UVM_INFO .\TB\sv\ahb_master_monitor.sv(74) @ 415: uvm_test_top.tb.env.master_agent.monitor [ahb_master_monitor] Packet Collected :
# --------------------------------------------------------------------
# Name                      Type                      Size  Value     
# --------------------------------------------------------------------
# ahb_master_sequence_item  ahb_master_sequence_item  -     @1233     
#   i_addr                  integral                  32    'h0       
#   i_data                  integral                  32    'h1ceb2447
#   i_burst_type            burst_t                   3     INCR16    
#   i_data_size             hsize_t                   3     HSIZE_BYTE
#   haddr                   integral                  32    'h48f     
#   i_write                 integral                  1     'h0       
#   i_wrap_en               integral                  1     'h0X      
#   i_busy                  integral                  1     'h0X      
# --------------------------------------------------------------------
# 
# UVM_INFO .\TB\sv\ahb_slave_monitor.sv(84) @ 415: uvm_test_top.tb.env.slave_agent.monitor [ahb_slave_monitor] Packet Collected :
# ------------------------------------------------------------------
# Name                     Type                     Size  Value     
# ------------------------------------------------------------------
# ahb_slave_sequence_item  ahb_slave_sequence_item  -     @1225     
#   haddr                  integral                 32    'h48f     
#   hwrite                 integral                 1     'h0       
#   hburst                 burst_t                  3     INCR16    
#   hsize                  hsize_t                  3     HSIZE_BYTE
#   htrans                 htrans_t                 2     SEQ       
#   hwdata                 integral                 32    'h0       
#   hrdata                 integral                 32    'h46000000
#   hready                 integral                 1     'h0X      
#   hresp                  integral                 1     'h0       
# ------------------------------------------------------------------
# 
# [COVER] OKAY COMPLETE observed
# UVM_INFO .\TB\sv\ahb_slave_monitor.sv(84) @ 425: uvm_test_top.tb.env.slave_agent.monitor [ahb_slave_monitor] Packet Collected :
# ------------------------------------------------------------------
# Name                     Type                     Size  Value     
# ------------------------------------------------------------------
# ahb_slave_sequence_item  ahb_slave_sequence_item  -     @1249     
#   haddr                  integral                 32    'h490     
#   hwrite                 integral                 1     'h0       
#   hburst                 burst_t                  3     INCR16    
#   hsize                  hsize_t                  3     HSIZE_BYTE
#   htrans                 htrans_t                 2     SEQ       
#   hwdata                 integral                 32    'h0       
#   hrdata                 integral                 32    'h47000000
#   hready                 integral                 1     'h0X      
#   hresp                  integral                 1     'h0       
# ------------------------------------------------------------------
# 
# UVM_INFO .\TB\sv\ahb_master_monitor.sv(74) @ 425: uvm_test_top.tb.env.master_agent.monitor [ahb_master_monitor] Packet Collected :
# --------------------------------------------------------------------
# Name                      Type                      Size  Value     
# --------------------------------------------------------------------
# ahb_master_sequence_item  ahb_master_sequence_item  -     @1241     
#   i_addr                  integral                  32    'h0       
#   i_data                  integral                  32    'h1ceb2447
#   i_burst_type            burst_t                   3     INCR16    
#   i_data_size             hsize_t                   3     HSIZE_BYTE
#   haddr                   integral                  32    'h490     
#   i_write                 integral                  1     'h0       
#   i_wrap_en               integral                  1     'h0X      
#   i_busy                  integral                  1     'h0X      
# --------------------------------------------------------------------
# 
# UVM_INFO .\TB\sv\ahb_master_sequences.sv(48) @ 425: uvm_test_top.tb.env.master_agent.sequencer@@ahb_master_incr16_sequences [ahb_master_incr16_sequences] drop objection
# [COVER] OKAY COMPLETE observed
# [COVER] OKAY COMPLETE observed
# [COVER] OKAY COMPLETE observed
# [COVER] OKAY COMPLETE observed
# [COVER] OKAY COMPLETE observed
# [COVER] OKAY COMPLETE observed
# [COVER] OKAY COMPLETE observed
# [COVER] OKAY COMPLETE observed
# [COVER] OKAY COMPLETE observed
# [COVER] OKAY COMPLETE observed
# [COVER] OKAY COMPLETE observed
# [COVER] OKAY COMPLETE observed
# [COVER] OKAY COMPLETE observed
# [COVER] OKAY COMPLETE observed
# [COVER] OKAY COMPLETE observed
# [COVER] OKAY COMPLETE observed
# [COVER] OKAY COMPLETE observed
# [COVER] OKAY COMPLETE observed
# [COVER] OKAY COMPLETE observed
# [COVER] OKAY COMPLETE observed
# UVM_INFO C:/questasim64_10.7c/verilog_src/uvm-1.1d/src/base/uvm_objection.svh(1243) @ 625: reporter [TEST_DONE] All end-of-test objections have been dropped. Calling stop tasks
# UVM_INFO C:/questasim64_10.7c/verilog_src/uvm-1.1d/src/base/uvm_objection.svh(1267) @ 625: reporter [TEST_DONE] 'run' phase is ready to proceed to the 'extract' phase
# UVM_INFO .\TB\sv\ahb_scoreboard.sv(271) @ 625: uvm_test_top.tb.env.ahb_scb [SCOREBOARD_ADDR] ADDR PASS: expected=0x481 actual=0x481 burst=INCR16 size=HSIZE_BYTE
# UVM_INFO .\TB\sv\ahb_scoreboard.sv(298) @ 625: uvm_test_top.tb.env.ahb_scb [SCOREBOARD_DATA] WRITE PASS: addr=0x481 data=0x1ceb2438
# UVM_INFO .\TB\sv\ahb_scoreboard.sv(271) @ 625: uvm_test_top.tb.env.ahb_scb [SCOREBOARD_ADDR] ADDR PASS: expected=0x482 actual=0x482 burst=INCR16 size=HSIZE_BYTE
# UVM_INFO .\TB\sv\ahb_scoreboard.sv(298) @ 625: uvm_test_top.tb.env.ahb_scb [SCOREBOARD_DATA] WRITE PASS: addr=0x482 data=0x1ceb2439
# UVM_INFO .\TB\sv\ahb_scoreboard.sv(271) @ 625: uvm_test_top.tb.env.ahb_scb [SCOREBOARD_ADDR] ADDR PASS: expected=0x483 actual=0x483 burst=INCR16 size=HSIZE_BYTE
# UVM_INFO .\TB\sv\ahb_scoreboard.sv(298) @ 625: uvm_test_top.tb.env.ahb_scb [SCOREBOARD_DATA] WRITE PASS: addr=0x483 data=0x1ceb243a
# UVM_INFO .\TB\sv\ahb_scoreboard.sv(271) @ 625: uvm_test_top.tb.env.ahb_scb [SCOREBOARD_ADDR] ADDR PASS: expected=0x484 actual=0x484 burst=INCR16 size=HSIZE_BYTE
# UVM_INFO .\TB\sv\ahb_scoreboard.sv(298) @ 625: uvm_test_top.tb.env.ahb_scb [SCOREBOARD_DATA] WRITE PASS: addr=0x484 data=0x1ceb243b
# UVM_INFO .\TB\sv\ahb_scoreboard.sv(271) @ 625: uvm_test_top.tb.env.ahb_scb [SCOREBOARD_ADDR] ADDR PASS: expected=0x485 actual=0x485 burst=INCR16 size=HSIZE_BYTE
# UVM_INFO .\TB\sv\ahb_scoreboard.sv(298) @ 625: uvm_test_top.tb.env.ahb_scb [SCOREBOARD_DATA] WRITE PASS: addr=0x485 data=0x1ceb243c
# UVM_INFO .\TB\sv\ahb_scoreboard.sv(271) @ 625: uvm_test_top.tb.env.ahb_scb [SCOREBOARD_ADDR] ADDR PASS: expected=0x486 actual=0x486 burst=INCR16 size=HSIZE_BYTE
# UVM_INFO .\TB\sv\ahb_scoreboard.sv(298) @ 625: uvm_test_top.tb.env.ahb_scb [SCOREBOARD_DATA] WRITE PASS: addr=0x486 data=0x1ceb243d
# UVM_INFO .\TB\sv\ahb_scoreboard.sv(271) @ 625: uvm_test_top.tb.env.ahb_scb [SCOREBOARD_ADDR] ADDR PASS: expected=0x487 actual=0x487 burst=INCR16 size=HSIZE_BYTE
# UVM_INFO .\TB\sv\ahb_scoreboard.sv(298) @ 625: uvm_test_top.tb.env.ahb_scb [SCOREBOARD_DATA] WRITE PASS: addr=0x487 data=0x1ceb243e
# UVM_INFO .\TB\sv\ahb_scoreboard.sv(271) @ 625: uvm_test_top.tb.env.ahb_scb [SCOREBOARD_ADDR] ADDR PASS: expected=0x488 actual=0x488 burst=INCR16 size=HSIZE_BYTE
# UVM_INFO .\TB\sv\ahb_scoreboard.sv(298) @ 625: uvm_test_top.tb.env.ahb_scb [SCOREBOARD_DATA] WRITE PASS: addr=0x488 data=0x1ceb243f
# UVM_INFO .\TB\sv\ahb_scoreboard.sv(271) @ 625: uvm_test_top.tb.env.ahb_scb [SCOREBOARD_ADDR] ADDR PASS: expected=0x489 actual=0x489 burst=INCR16 size=HSIZE_BYTE
# UVM_INFO .\TB\sv\ahb_scoreboard.sv(298) @ 625: uvm_test_top.tb.env.ahb_scb [SCOREBOARD_DATA] WRITE PASS: addr=0x489 data=0x1ceb2440
# UVM_INFO .\TB\sv\ahb_scoreboard.sv(271) @ 625: uvm_test_top.tb.env.ahb_scb [SCOREBOARD_ADDR] ADDR PASS: expected=0x48a actual=0x48a burst=INCR16 size=HSIZE_BYTE
# UVM_INFO .\TB\sv\ahb_scoreboard.sv(298) @ 625: uvm_test_top.tb.env.ahb_scb [SCOREBOARD_DATA] WRITE PASS: addr=0x48a data=0x1ceb2441
# UVM_INFO .\TB\sv\ahb_scoreboard.sv(271) @ 625: uvm_test_top.tb.env.ahb_scb [SCOREBOARD_ADDR] ADDR PASS: expected=0x48b actual=0x48b burst=INCR16 size=HSIZE_BYTE
# UVM_INFO .\TB\sv\ahb_scoreboard.sv(298) @ 625: uvm_test_top.tb.env.ahb_scb [SCOREBOARD_DATA] WRITE PASS: addr=0x48b data=0x1ceb2442
# UVM_INFO .\TB\sv\ahb_scoreboard.sv(271) @ 625: uvm_test_top.tb.env.ahb_scb [SCOREBOARD_ADDR] ADDR PASS: expected=0x48c actual=0x48c burst=INCR16 size=HSIZE_BYTE
# UVM_INFO .\TB\sv\ahb_scoreboard.sv(298) @ 625: uvm_test_top.tb.env.ahb_scb [SCOREBOARD_DATA] WRITE PASS: addr=0x48c data=0x1ceb2443
# UVM_INFO .\TB\sv\ahb_scoreboard.sv(271) @ 625: uvm_test_top.tb.env.ahb_scb [SCOREBOARD_ADDR] ADDR PASS: expected=0x48d actual=0x48d burst=INCR16 size=HSIZE_BYTE
# UVM_INFO .\TB\sv\ahb_scoreboard.sv(298) @ 625: uvm_test_top.tb.env.ahb_scb [SCOREBOARD_DATA] WRITE PASS: addr=0x48d data=0x1ceb2444
# UVM_INFO .\TB\sv\ahb_scoreboard.sv(271) @ 625: uvm_test_top.tb.env.ahb_scb [SCOREBOARD_ADDR] ADDR PASS: expected=0x48e actual=0x48e burst=INCR16 size=HSIZE_BYTE
# UVM_INFO .\TB\sv\ahb_scoreboard.sv(298) @ 625: uvm_test_top.tb.env.ahb_scb [SCOREBOARD_DATA] WRITE PASS: addr=0x48e data=0x1ceb2445
# UVM_INFO .\TB\sv\ahb_scoreboard.sv(271) @ 625: uvm_test_top.tb.env.ahb_scb [SCOREBOARD_ADDR] ADDR PASS: expected=0x48f actual=0x48f burst=INCR16 size=HSIZE_BYTE
# UVM_INFO .\TB\sv\ahb_scoreboard.sv(298) @ 625: uvm_test_top.tb.env.ahb_scb [SCOREBOARD_DATA] WRITE PASS: addr=0x48f data=0x1ceb2446
# UVM_INFO .\TB\sv\ahb_scoreboard.sv(271) @ 625: uvm_test_top.tb.env.ahb_scb [SCOREBOARD_ADDR] ADDR PASS: expected=0x490 actual=0x490 burst=INCR16 size=HSIZE_BYTE
# UVM_INFO .\TB\sv\ahb_scoreboard.sv(298) @ 625: uvm_test_top.tb.env.ahb_scb [SCOREBOARD_DATA] WRITE PASS: addr=0x490 data=0x1ceb2447
# UVM_INFO .\TB\sv\ahb_scoreboard.sv(271) @ 625: uvm_test_top.tb.env.ahb_scb [SCOREBOARD_ADDR] ADDR PASS: expected=0x481 actual=0x481 burst=INCR16 size=HSIZE_BYTE
# UVM_INFO .\TB\sv\ahb_scoreboard.sv(341) @ 625: uvm_test_top.tb.env.ahb_scb [SCOREBOARD_DATA] READ PASS: addr=0x481 exp=0x38000000 act=0x38000000
# UVM_INFO .\TB\sv\ahb_scoreboard.sv(271) @ 625: uvm_test_top.tb.env.ahb_scb [SCOREBOARD_ADDR] ADDR PASS: expected=0x482 actual=0x482 burst=INCR16 size=HSIZE_BYTE
# UVM_INFO .\TB\sv\ahb_scoreboard.sv(341) @ 625: uvm_test_top.tb.env.ahb_scb [SCOREBOARD_DATA] READ PASS: addr=0x482 exp=0x39000000 act=0x39000000
# UVM_INFO .\TB\sv\ahb_scoreboard.sv(271) @ 625: uvm_test_top.tb.env.ahb_scb [SCOREBOARD_ADDR] ADDR PASS: expected=0x483 actual=0x483 burst=INCR16 size=HSIZE_BYTE
# UVM_INFO .\TB\sv\ahb_scoreboard.sv(341) @ 625: uvm_test_top.tb.env.ahb_scb [SCOREBOARD_DATA] READ PASS: addr=0x483 exp=0x3a000000 act=0x3a000000
# UVM_INFO .\TB\sv\ahb_scoreboard.sv(271) @ 625: uvm_test_top.tb.env.ahb_scb [SCOREBOARD_ADDR] ADDR PASS: expected=0x484 actual=0x484 burst=INCR16 size=HSIZE_BYTE
# UVM_INFO .\TB\sv\ahb_scoreboard.sv(341) @ 625: uvm_test_top.tb.env.ahb_scb [SCOREBOARD_DATA] READ PASS: addr=0x484 exp=0x3b000000 act=0x3b000000
# UVM_INFO .\TB\sv\ahb_scoreboard.sv(271) @ 625: uvm_test_top.tb.env.ahb_scb [SCOREBOARD_ADDR] ADDR PASS: expected=0x485 actual=0x485 burst=INCR16 size=HSIZE_BYTE
# UVM_INFO .\TB\sv\ahb_scoreboard.sv(341) @ 625: uvm_test_top.tb.env.ahb_scb [SCOREBOARD_DATA] READ PASS: addr=0x485 exp=0x3c000000 act=0x3c000000
# UVM_INFO .\TB\sv\ahb_scoreboard.sv(271) @ 625: uvm_test_top.tb.env.ahb_scb [SCOREBOARD_ADDR] ADDR PASS: expected=0x486 actual=0x486 burst=INCR16 size=HSIZE_BYTE
# UVM_INFO .\TB\sv\ahb_scoreboard.sv(341) @ 625: uvm_test_top.tb.env.ahb_scb [SCOREBOARD_DATA] READ PASS: addr=0x486 exp=0x3d000000 act=0x3d000000
# UVM_INFO .\TB\sv\ahb_scoreboard.sv(271) @ 625: uvm_test_top.tb.env.ahb_scb [SCOREBOARD_ADDR] ADDR PASS: expected=0x487 actual=0x487 burst=INCR16 size=HSIZE_BYTE
# UVM_INFO .\TB\sv\ahb_scoreboard.sv(341) @ 625: uvm_test_top.tb.env.ahb_scb [SCOREBOARD_DATA] READ PASS: addr=0x487 exp=0x3e000000 act=0x3e000000
# UVM_INFO .\TB\sv\ahb_scoreboard.sv(271) @ 625: uvm_test_top.tb.env.ahb_scb [SCOREBOARD_ADDR] ADDR PASS: expected=0x488 actual=0x488 burst=INCR16 size=HSIZE_BYTE
# UVM_INFO .\TB\sv\ahb_scoreboard.sv(341) @ 625: uvm_test_top.tb.env.ahb_scb [SCOREBOARD_DATA] READ PASS: addr=0x488 exp=0x3f000000 act=0x3f000000
# UVM_INFO .\TB\sv\ahb_scoreboard.sv(271) @ 625: uvm_test_top.tb.env.ahb_scb [SCOREBOARD_ADDR] ADDR PASS: expected=0x489 actual=0x489 burst=INCR16 size=HSIZE_BYTE
# UVM_INFO .\TB\sv\ahb_scoreboard.sv(341) @ 625: uvm_test_top.tb.env.ahb_scb [SCOREBOARD_DATA] READ PASS: addr=0x489 exp=0x40000000 act=0x40000000
# UVM_INFO .\TB\sv\ahb_scoreboard.sv(271) @ 625: uvm_test_top.tb.env.ahb_scb [SCOREBOARD_ADDR] ADDR PASS: expected=0x48a actual=0x48a burst=INCR16 size=HSIZE_BYTE
# UVM_INFO .\TB\sv\ahb_scoreboard.sv(341) @ 625: uvm_test_top.tb.env.ahb_scb [SCOREBOARD_DATA] READ PASS: addr=0x48a exp=0x41000000 act=0x41000000
# UVM_INFO .\TB\sv\ahb_scoreboard.sv(271) @ 625: uvm_test_top.tb.env.ahb_scb [SCOREBOARD_ADDR] ADDR PASS: expected=0x48b actual=0x48b burst=INCR16 size=HSIZE_BYTE
# UVM_INFO .\TB\sv\ahb_scoreboard.sv(341) @ 625: uvm_test_top.tb.env.ahb_scb [SCOREBOARD_DATA] READ PASS: addr=0x48b exp=0x42000000 act=0x42000000
# UVM_INFO .\TB\sv\ahb_scoreboard.sv(271) @ 625: uvm_test_top.tb.env.ahb_scb [SCOREBOARD_ADDR] ADDR PASS: expected=0x48c actual=0x48c burst=INCR16 size=HSIZE_BYTE
# UVM_INFO .\TB\sv\ahb_scoreboard.sv(341) @ 625: uvm_test_top.tb.env.ahb_scb [SCOREBOARD_DATA] READ PASS: addr=0x48c exp=0x43000000 act=0x43000000
# UVM_INFO .\TB\sv\ahb_scoreboard.sv(271) @ 625: uvm_test_top.tb.env.ahb_scb [SCOREBOARD_ADDR] ADDR PASS: expected=0x48d actual=0x48d burst=INCR16 size=HSIZE_BYTE
# UVM_INFO .\TB\sv\ahb_scoreboard.sv(341) @ 625: uvm_test_top.tb.env.ahb_scb [SCOREBOARD_DATA] READ PASS: addr=0x48d exp=0x44000000 act=0x44000000
# UVM_INFO .\TB\sv\ahb_scoreboard.sv(271) @ 625: uvm_test_top.tb.env.ahb_scb [SCOREBOARD_ADDR] ADDR PASS: expected=0x48e actual=0x48e burst=INCR16 size=HSIZE_BYTE
# UVM_INFO .\TB\sv\ahb_scoreboard.sv(341) @ 625: uvm_test_top.tb.env.ahb_scb [SCOREBOARD_DATA] READ PASS: addr=0x48e exp=0x45000000 act=0x45000000
# UVM_INFO .\TB\sv\ahb_scoreboard.sv(271) @ 625: uvm_test_top.tb.env.ahb_scb [SCOREBOARD_ADDR] ADDR PASS: expected=0x48f actual=0x48f burst=INCR16 size=HSIZE_BYTE
# UVM_INFO .\TB\sv\ahb_scoreboard.sv(341) @ 625: uvm_test_top.tb.env.ahb_scb [SCOREBOARD_DATA] READ PASS: addr=0x48f exp=0x46000000 act=0x46000000
# UVM_INFO .\TB\sv\ahb_scoreboard.sv(271) @ 625: uvm_test_top.tb.env.ahb_scb [SCOREBOARD_ADDR] ADDR PASS: expected=0x490 actual=0x490 burst=INCR16 size=HSIZE_BYTE
# UVM_INFO .\TB\sv\ahb_scoreboard.sv(341) @ 625: uvm_test_top.tb.env.ahb_scb [SCOREBOARD_DATA] READ PASS: addr=0x490 exp=0x47000000 act=0x47000000
# UVM_INFO .\TB\tb\ahb_test_lib.sv(43) @ 625: uvm_test_top [ahb_master_incr16_test] Check config usage at check phase
# UVM_INFO .\TB\sv\ahb_scoreboard.sv(366) @ 625: uvm_test_top.tb.env.ahb_scb [ahb_scoreboard] Scoreboard Summary: Total=32 WR=16 RD=16 ERR=0
# UVM_INFO .\TB\sv\ahb_master_monitor.sv(80) @ 625: uvm_test_top.tb.env.master_agent.monitor [ahb_master_monitor] Report: AHB Master Monitor observed 32 transactions
# UVM_INFO .\TB\sv\ahb_slave_monitor.sv(90) @ 625: uvm_test_top.tb.env.slave_agent.monitor [ahb_slave_monitor] Report: AHB slave Monitor observed 32 transactions
# 
# --- UVM Report Summary ---
# 
# ** Report counts by severity
# UVM_INFO :  177
# UVM_WARNING :    0
# UVM_ERROR :    0
# UVM_FATAL :    0
# ** Report counts by id
# [CFG]     2
# [NO_DPI_TSTNAME]     1
# [PHASESEQ]    13
# [RNTST]     1
# [SCOREBOARD_ADDR]    32
# [SCOREBOARD_DATA]    32
# [TEST_DONE]     2
# [UVMTOP]     1
# [ahb_env]     1
# [ahb_master_agent]     2
# [ahb_master_driver]     5
# [ahb_master_incr16_sequences]     3
# [ahb_master_incr16_test]     5
# [ahb_master_monitor]    36
# [ahb_scoreboard]     1
# [ahb_slave_agent]     1
# [ahb_slave_monitor]    36
# [ahb_tb]     3
# ** Note: $finish    : C:/questasim64_10.7c/verilog_src/uvm-1.1d/src/base/uvm_root.svh(430)
#    Time: 625 ns  Iteration: 53  Instance: /tb_ahb_top
# Break in Task std/mailbox::get at C:/questasim64_10.7c/win64/../verilog_src/std/std.sv line 41
#  coverage save -onexit ./cov_out/ahb_master_incr16_test.ucdb
#  quit -sim
# Saving coverage database on exit...
# End time: 12:44:33 on Sep 26,2026, Elapsed time: 0:00:09
# Errors: 0, Warnings: 18
# 
# vsim -c -coverage -wlf ./wlf_out/ahb_master_wrap4_test.wlf work.tb_ahb_top "+SVSEED=random" "+UVM_TESTNAME=ahb_master_wrap4_test" "+UVM_VERBOSITY=UVM_FULL" "+UVM_TR_RECORD" -onfinish final -do "transcript file ./logs/ahb_master_wrap4_test.log; log -r /*; run -all; coverage save -onexit ./cov_out/ahb_master_wrap4_test.ucdb; quit -sim;" -debugDB 
# Start time: 12:44:33 on Sep 26,2026
# ** Note: (vsim-8009) Loading existing optimized design _opt
# Loading sv_std.std
# Loading work.ahb_if(fast)
# Loading work.ahb_slave_pkg(fast)
# Loading work.ahb_master_pkg(fast)
# Loading work.ahb_define_pkg(fast)
# Loading work.uvm_pkg(fast)
# Loading work.ahb_pkg(fast)
# ** Note: (vsim-8785) UVM-aware debugging capabilities will be disabled since no compiled "questa_uvm_pkg" can be found.
# This also means that later if you turn on UVM-aware debugging your debug simulations may have
# different random seeds from your non-debug simulations.
# Loading work.tb_ahb_top(fast)
# Loading work.ahb_if_sv_unit(fast)
# Loading work.ahb_if(fast)
# Loading work.ahb_top_sv_unit(fast)
# Loading work.ahb_top(fast)
# Loading work.ahb_if(fast__1)
# Loading work.ahb_if(fast__2)
# Loading work.ahb_if(fast__3)
# Loading work.ahb_master_sv_unit(fast)
# Loading work.ahb_master(fast)
# Loading work.ahb_address_decoder_sv_unit(fast)
# Loading work.ahb_address_decoder(fast)
# Loading work.ahb_slave_1_sv_unit(fast)
# Loading work.ahb_slave_1(fast)
# Loading work.ahb_slave_2_sv_unit(fast)
# Loading work.ahb_slave_2(fast)
# Loading work.ahb_slave_3_sv_unit(fast)
# Loading work.ahb_slave_3(fast)
# Loading work.ahb_slave_4_sv_unit(fast)
# Loading work.ahb_slave_4(fast)
# Loading work.ahb_hrdata_mux(fast)
# ** Warning: (vsim-2685) [TFMPC] - Too few port connections for 'master_if'.  Expected 2, found 0.
#    Time: 0 ns  Iteration: 0  Instance: /tb_ahb_top/uut/master_if File: ./RTL/ahb_top.sv Line: 35
# ** Warning: (vsim-3722) ./RTL/ahb_top.sv(35): [TFMPC] - Missing connection for port 'hclk'.
# ** Warning: (vsim-3722) ./RTL/ahb_top.sv(35): [TFMPC] - Missing connection for port 'hreset_n'.
# ** Warning: (vsim-2685) [TFMPC] - Too few port connections for 'decoder_if'.  Expected 2, found 0.
#    Time: 0 ns  Iteration: 0  Instance: /tb_ahb_top/uut/decoder_if File: ./RTL/ahb_top.sv Line: 36
# ** Warning: (vsim-3722) ./RTL/ahb_top.sv(36): [TFMPC] - Missing connection for port 'hclk'.
# ** Warning: (vsim-3722) ./RTL/ahb_top.sv(36): [TFMPC] - Missing connection for port 'hreset_n'.
# ** Warning: (vsim-2685) [TFMPC] - Too few port connections for 'slave1_if'.  Expected 2, found 0.
