#  log -r /*
#  run -all
# ----------------------------------------------------------------
# UVM-1.1d
# (C) 2007-2013 Mentor Graphics Corporation
# (C) 2007-2013 Cadence Design Systems, Inc.
# (C) 2006-2013 Synopsys, Inc.
# (C) 2011-2013 Cypress Semiconductor Corp.
# ----------------------------------------------------------------
# 
#   ***********       IMPORTANT RELEASE NOTES         ************
# 
#   You are using a version of the UVM library that has been compiled
#   with `UVM_NO_DEPRECATED undefined.
#   See http://www.eda.org/svdb/view.php?id=3313 for more details.
# 
#   You are using a version of the UVM library that has been compiled
#   with `UVM_OBJECT_MUST_HAVE_CONSTRUCTOR undefined.
#   See http://www.eda.org/svdb/view.php?id=3770 for more details.
# 
#       (Specify +UVM_NO_RELNOTES to turn off this notice)
# 
# UVM_INFO C:/questasim64_10.7c/verilog_src/uvm-1.1d/src/base/uvm_root.svh(370) @ 0: reporter [NO_DPI_TSTNAME] UVM_NO_DPI defined--getting UVM_TESTNAME directly, without DPI
# UVM_INFO @ 0: reporter [RNTST] Running test ahb_master_driver_wait_state_test...
# UVM_INFO .\TB\tb\ahb_tb.sv(18) @ 0: uvm_test_top.tb [ahb_tb] Testbench Build Phase is being executed !
# UVM_INFO .\TB\sv\ahb_master_agent.sv(23) @ 0: uvm_test_top.tb.env.master_agent [CFG] Property is_active exists in config DB
# UVM_INFO .\TB\sv\ahb_master_agent.sv(34) @ 0: uvm_test_top.tb.env.master_agent [ahb_master_agent] AGENT IS ACTIVE !
# UVM_INFO .\TB\sv\ahb_slave_agent.sv(23) @ 0: uvm_test_top.tb.env.slave_agent [CFG] Property is_active exists in config DB
# UVM_INFO .\TB\sv\ahb_master_driver.sv(24) @ 0: uvm_test_top.tb.env.master_agent.driver [ahb_master_driver_wait_state] Driver is connected with interface
# UVM_INFO .\TB\sv\ahb_master_monitor.sv(26) @ 0: uvm_test_top.tb.env.master_agent.monitor [ahb_master_monitor] Driver is connected with interface
# UVM_INFO .\TB\sv\ahb_slave_monitor.sv(26) @ 0: uvm_test_top.tb.env.slave_agent.monitor [ahb_slave_monitor] Driver is connected with interface
# UVM_INFO .\TB\tb\ahb_test_lib.sv(25) @ 0: uvm_test_top [ahb_master_driver_wait_state_test] End of Elaboration Phase of Test is being executed!
# UVM_INFO @ 0: reporter [UVMTOP] UVM testbench topology:
# -----------------------------------------------------------------------------
# Name                           Type                               Size  Value
# -----------------------------------------------------------------------------
# uvm_test_top                   ahb_master_driver_wait_state_test  -     @452 
#   tb                           ahb_tb                             -     @471 
#     env                        ahb_env                            -     @478 
#       ahb_scb                  ahb_scoreboard                     -     @499 
#         master_imp             uvm_analysis_imp_master            -     @506 
#           recording_detail     integral                           32    'd1  
#         slave_imp              uvm_analysis_imp_slave             -     @514 
#           recording_detail     integral                           32    'd1  
#         recording_detail       integral                           32    'd1  
#       master_agent             ahb_master_agent                   -     @485 
#         driver                 ahb_master_driver_wait_state       -     @555 
#           rsp_port             uvm_analysis_port                  -     @570 
#             recording_detail   integral                           32    'd1  
#           seq_item_port        uvm_seq_item_pull_port             -     @562 
#             recording_detail   integral                           32    'd1  
#           recording_detail     integral                           32    'd1  
#         monitor                ahb_master_monitor                 -     @538 
#           item_collected_port  uvm_analysis_port                  -     @545 
#             recording_detail   integral                           32    'd1  
#           recording_detail     integral                           32    'd1  
#         sequencer              ahb_master_sequencer               -     @578 
#           rsp_export           uvm_analysis_export                -     @585 
#             recording_detail   integral                           32    'd1  
#           seq_item_export      uvm_seq_item_pull_imp              -     @679 
#             recording_detail   integral                           32    'd1  
#           recording_detail     integral                           32    'd1  
#           arbitration_queue    array                              0     -    
#           lock_queue           array                              0     -    
#           num_last_reqs        integral                           32    'd1  
#           num_last_rsps        integral                           32    'd1  
#         recording_detail       integral                           32    'd1  
#       slave_agent              ahb_slave_agent                    -     @492 
#         monitor                ahb_slave_monitor                  -     @693 
#           item_collected_port  uvm_analysis_port                  -     @700 
#             recording_detail   integral                           32    'd1  
#           recording_detail     integral                           32    'd1  
#         recording_detail       integral                           32    'd1  
#       slave_cov                func_cov                           -     @522 
#         analysis_imp           uvm_analysis_imp                   -     @529 
#           recording_detail     integral                           32    'd1  
#         recording_detail       integral                           32    'd1  
#       recording_detail         integral                           32    'd1  
#     recording_detail           integral                           32    'd1  
# -----------------------------------------------------------------------------
# 
# UVM_INFO .\TB\sv\ahb_master_driver.sv(28) @ 0: uvm_test_top.tb.env.master_agent.driver [ahb_master_driver_wait_state] start of simulation for uvm_test_top.tb.env.master_agent.driver
# UVM_INFO .\TB\sv\ahb_master_monitor.sv(30) @ 0: uvm_test_top.tb.env.master_agent.monitor [ahb_master_monitor] start of simulation for uvm_test_top.tb.env.master_agent.monitor
# UVM_INFO .\TB\sv\ahb_master_agent.sv(48) @ 0: uvm_test_top.tb.env.master_agent [ahb_master_agent] start of simulation for uvm_test_top.tb.env.master_agent
# UVM_INFO .\TB\sv\ahb_slave_monitor.sv(30) @ 0: uvm_test_top.tb.env.slave_agent.monitor [ahb_slave_monitor] start of simulation for uvm_test_top.tb.env.slave_agent.monitor
# UVM_INFO .\TB\sv\ahb_slave_agent.sv(48) @ 0: uvm_test_top.tb.env.slave_agent [ahb_slave_agent] start of simulation for uvm_test_top.tb.env.slave_agent
# UVM_INFO .\TB\sv\ahb_env.sv(34) @ 0: uvm_test_top.tb.env [ahb_env] start of simulation for uvm_test_top.tb.env
# UVM_INFO .\TB\tb\ahb_tb.sv(22) @ 0: uvm_test_top.tb [ahb_tb] start of simulation for uvm_test_top.tb
# UVM_INFO .\TB\tb\ahb_test_lib.sv(34) @ 0: uvm_test_top [ahb_master_driver_wait_state_test] Run Phase of Test is being executed!
# UVM_INFO .\TB\tb\ahb_test_lib.sv(37) @ 0: uvm_test_top [ahb_master_driver_wait_state_test] Raise objection in run phase
# UVM_INFO .\TB\tb\ahb_test_lib.sv(39) @ 0: uvm_test_top [ahb_master_driver_wait_state_test] Drop objection in run phase
# UVM_INFO .\TB\tb\ahb_tb.sv(26) @ 0: uvm_test_top.tb [ahb_tb] Testbench Run Phase is begin executed!
# UVM_INFO C:/questasim64_10.7c/verilog_src/uvm-1.1d/src/seq/uvm_sequencer_base.svh(1390) @ 0: uvm_test_top.tb.env.master_agent.sequencer [PHASESEQ] Starting default sequence 'ahb_master_wait_state_sequences' for phase 'run'
# UVM_INFO .\TB\sv\ahb_master_driver.sv(32) @ 0: uvm_test_top.tb.env.master_agent.driver [ahb_master_driver_wait_state] Driver is running
# UVM_INFO .\TB\sv\ahb_master_sequences.sv(28) @ 0: uvm_test_top.tb.env.master_agent.sequencer@@ahb_master_wait_state_sequences [ahb_master_wait_state_sequences] raise objection
# UVM_INFO .\TB\sv\ahb_master_sequences.sv(337) @ 0: uvm_test_top.tb.env.master_agent.sequencer@@ahb_master_wait_state_sequences [ahb_master_wait_state_sequences] Executing ahb_master_wait_state_sequences
# UVM_INFO C:/questasim64_10.7c/verilog_src/uvm-1.1d/src/seq/uvm_sequencer_base.svh(1384) @ 0: uvm_test_top.tb.env.master_agent.sequencer [PHASESEQ] No default phase sequence for phase 'pre_reset'
# UVM_INFO C:/questasim64_10.7c/verilog_src/uvm-1.1d/src/seq/uvm_sequencer_base.svh(1384) @ 0: uvm_test_top.tb.env.master_agent.sequencer [PHASESEQ] No default phase sequence for phase 'reset'
# UVM_INFO C:/questasim64_10.7c/verilog_src/uvm-1.1d/src/seq/uvm_sequencer_base.svh(1384) @ 0: uvm_test_top.tb.env.master_agent.sequencer [PHASESEQ] No default phase sequence for phase 'post_reset'
# UVM_INFO C:/questasim64_10.7c/verilog_src/uvm-1.1d/src/seq/uvm_sequencer_base.svh(1384) @ 0: uvm_test_top.tb.env.master_agent.sequencer [PHASESEQ] No default phase sequence for phase 'pre_configure'
# UVM_INFO C:/questasim64_10.7c/verilog_src/uvm-1.1d/src/seq/uvm_sequencer_base.svh(1384) @ 0: uvm_test_top.tb.env.master_agent.sequencer [PHASESEQ] No default phase sequence for phase 'configure'
# UVM_INFO C:/questasim64_10.7c/verilog_src/uvm-1.1d/src/seq/uvm_sequencer_base.svh(1384) @ 0: uvm_test_top.tb.env.master_agent.sequencer [PHASESEQ] No default phase sequence for phase 'post_configure'
# UVM_INFO C:/questasim64_10.7c/verilog_src/uvm-1.1d/src/seq/uvm_sequencer_base.svh(1384) @ 0: uvm_test_top.tb.env.master_agent.sequencer [PHASESEQ] No default phase sequence for phase 'pre_main'
# UVM_INFO C:/questasim64_10.7c/verilog_src/uvm-1.1d/src/seq/uvm_sequencer_base.svh(1384) @ 0: uvm_test_top.tb.env.master_agent.sequencer [PHASESEQ] No default phase sequence for phase 'main'
# UVM_INFO C:/questasim64_10.7c/verilog_src/uvm-1.1d/src/seq/uvm_sequencer_base.svh(1384) @ 0: uvm_test_top.tb.env.master_agent.sequencer [PHASESEQ] No default phase sequence for phase 'post_main'
# UVM_INFO C:/questasim64_10.7c/verilog_src/uvm-1.1d/src/seq/uvm_sequencer_base.svh(1384) @ 0: uvm_test_top.tb.env.master_agent.sequencer [PHASESEQ] No default phase sequence for phase 'pre_shutdown'
# UVM_INFO C:/questasim64_10.7c/verilog_src/uvm-1.1d/src/seq/uvm_sequencer_base.svh(1384) @ 0: uvm_test_top.tb.env.master_agent.sequencer [PHASESEQ] No default phase sequence for phase 'shutdown'
# UVM_INFO C:/questasim64_10.7c/verilog_src/uvm-1.1d/src/seq/uvm_sequencer_base.svh(1384) @ 0: uvm_test_top.tb.env.master_agent.sequencer [PHASESEQ] No default phase sequence for phase 'post_shutdown'
# UVM_INFO .\TB\sv\ahb_slave_monitor.sv(37) @ 25: uvm_test_top.tb.env.slave_agent.monitor [ahb_slave_monitor] Detected Reset Done
# UVM_INFO .\TB\sv\ahb_master_monitor.sv(37) @ 25: uvm_test_top.tb.env.master_agent.monitor [ahb_master_monitor] Detected Reset Done
# UVM_INFO .\TB\sv\ahb_master_driver.sv(37) @ 25: uvm_test_top.tb.env.master_agent.driver [ahb_master_driver_wait_state] Detected Reset Done
# UVM_INFO .\TB\sv\ahb_master_driver.sv(112) @ 25: uvm_test_top.tb.env.master_agent.driver [ahb_master_driver_wait_state] Sending Packet :
# -----------------------------------------------------------------------------------------------------------------------------------------
# Name                           Type                      Size  Value                                                                     
# -----------------------------------------------------------------------------------------------------------------------------------------
# req                            ahb_master_sequence_item  -     @720                                                                      
#   i_addr                       integral                  32    'h0                                                                       
#   i_data                       integral                  32    'h6ee08062                                                                
#   i_burst_type                 burst_t                   3     WRAP8                                                                     
#   i_data_size                  hsize_t                   3     HSIZE_BYTE                                                                
#   haddr                        integral                  32    'h0xxxxxxxx                                                               
#   i_write                      integral                  1     'h0X                                                                      
#   i_wrap_en                    integral                  1     'h0X                                                                      
#   i_busy                       integral                  1     'h0X                                                                      
#   begin_time                   time                      64    25                                                                        
#   depth                        int                       32    'd2                                                                       
#   parent sequence (name)       string                    31    ahb_master_wait_state_sequences                                           
#   parent sequence (full name)  string                    74    uvm_test_top.tb.env.master_agent.sequencer.ahb_master_wait_state_sequences
#   sequencer                    string                    42    uvm_test_top.tb.env.master_agent.sequencer                                
# -----------------------------------------------------------------------------------------------------------------------------------------
# 
# [COVER] OKAY COMPLETE observed
# [COVER] OKAY COMPLETE observed
# [COVER] OKAY COMPLETE observed
# [COVER] OKAY COMPLETE observed
# [COVER] OKAY COMPLETE observed
# Slave First time Sample
# UVM_INFO .\TB\sv\ahb_slave_monitor.sv(84) @ 75: uvm_test_top.tb.env.slave_agent.monitor [ahb_slave_monitor] Packet Collected :
# ------------------------------------------------------------------
# Name                     Type                     Size  Value     
# ------------------------------------------------------------------
# ahb_slave_sequence_item  ahb_slave_sequence_item  -     @748      
#   haddr                  integral                 32    'h0       
#   hwrite                 integral                 1     'h1       
#   hburst                 burst_t                  3     WRAP8     
#   hsize                  hsize_t                  3     HSIZE_BYTE
#   htrans                 htrans_t                 2     NONSEQ    
#   hwdata                 integral                 32    'h6ee08062
#   hrdata                 integral                 32    'h0       
#   hready                 integral                 1     'h0X      
#   hresp                  integral                 1     'h0       
# ------------------------------------------------------------------
# 
# Master First time Sample
# UVM_INFO .\TB\sv\ahb_master_monitor.sv(74) @ 75: uvm_test_top.tb.env.master_agent.monitor [ahb_master_monitor] Packet Collected :
# --------------------------------------------------------------------
# Name                      Type                      Size  Value     
# --------------------------------------------------------------------
# ahb_master_sequence_item  ahb_master_sequence_item  -     @752      
#   i_addr                  integral                  32    'h0       
#   i_data                  integral                  32    'h6ee08062
#   i_burst_type            burst_t                   3     WRAP8     
#   i_data_size             hsize_t                   3     HSIZE_BYTE
#   haddr                   integral                  32    'h0       
#   i_write                 integral                  1     'h1       
#   i_wrap_en               integral                  1     'h0X      
#   i_busy                  integral                  1     'h0X      
# --------------------------------------------------------------------
# 
# [COVER] OKAY COMPLETE observed
# UVM_INFO .\TB\sv\ahb_master_monitor.sv(74) @ 85: uvm_test_top.tb.env.master_agent.monitor [ahb_master_monitor] Packet Collected :
# --------------------------------------------------------------------
# Name                      Type                      Size  Value     
# --------------------------------------------------------------------
# ahb_master_sequence_item  ahb_master_sequence_item  -     @769      
#   i_addr                  integral                  32    'h0       
#   i_data                  integral                  32    'h6ee08063
#   i_burst_type            burst_t                   3     WRAP8     
#   i_data_size             hsize_t                   3     HSIZE_BYTE
#   haddr                   integral                  32    'h1       
#   i_write                 integral                  1     'h1       
#   i_wrap_en               integral                  1     'h0X      
#   i_busy                  integral                  1     'h0X      
# --------------------------------------------------------------------
# 
# UVM_INFO .\TB\sv\ahb_slave_monitor.sv(84) @ 85: uvm_test_top.tb.env.slave_agent.monitor [ahb_slave_monitor] Packet Collected :
# ------------------------------------------------------------------
# Name                     Type                     Size  Value     
# ------------------------------------------------------------------
# ahb_slave_sequence_item  ahb_slave_sequence_item  -     @761      
#   haddr                  integral                 32    'h1       
#   hwrite                 integral                 1     'h1       
#   hburst                 burst_t                  3     WRAP8     
#   hsize                  hsize_t                  3     HSIZE_BYTE
#   htrans                 htrans_t                 2     SEQ       
#   hwdata                 integral                 32    'h6ee08063
#   hrdata                 integral                 32    'h0       
#   hready                 integral                 1     'h0X      
#   hresp                  integral                 1     'h0       
# ------------------------------------------------------------------
# 
# [COVER] OKAY COMPLETE observed
# UVM_INFO .\TB\sv\ahb_slave_monitor.sv(84) @ 95: uvm_test_top.tb.env.slave_agent.monitor [ahb_slave_monitor] Packet Collected :
# ------------------------------------------------------------------
# Name                     Type                     Size  Value     
# ------------------------------------------------------------------
# ahb_slave_sequence_item  ahb_slave_sequence_item  -     @785      
#   haddr                  integral                 32    'h2       
#   hwrite                 integral                 1     'h1       
#   hburst                 burst_t                  3     WRAP8     
#   hsize                  hsize_t                  3     HSIZE_BYTE
#   htrans                 htrans_t                 2     SEQ       
#   hwdata                 integral                 32    'h6ee08064
#   hrdata                 integral                 32    'h0       
#   hready                 integral                 1     'h0X      
#   hresp                  integral                 1     'h0       
# ------------------------------------------------------------------
# 
# UVM_INFO .\TB\sv\ahb_master_monitor.sv(74) @ 95: uvm_test_top.tb.env.master_agent.monitor [ahb_master_monitor] Packet Collected :
# --------------------------------------------------------------------
# Name                      Type                      Size  Value     
# --------------------------------------------------------------------
# ahb_master_sequence_item  ahb_master_sequence_item  -     @777      
#   i_addr                  integral                  32    'h0       
#   i_data                  integral                  32    'h6ee08064
#   i_burst_type            burst_t                   3     WRAP8     
#   i_data_size             hsize_t                   3     HSIZE_BYTE
#   haddr                   integral                  32    'h2       
#   i_write                 integral                  1     'h1       
#   i_wrap_en               integral                  1     'h0X      
#   i_busy                  integral                  1     'h0X      
# --------------------------------------------------------------------
# 
# [COVER] OKAY COMPLETE observed
# UVM_INFO .\TB\sv\ahb_master_monitor.sv(74) @ 105: uvm_test_top.tb.env.master_agent.monitor [ahb_master_monitor] Packet Collected :
# --------------------------------------------------------------------
# Name                      Type                      Size  Value     
# --------------------------------------------------------------------
# ahb_master_sequence_item  ahb_master_sequence_item  -     @801      
#   i_addr                  integral                  32    'h0       
#   i_data                  integral                  32    'h6ee08065
#   i_burst_type            burst_t                   3     WRAP8     
#   i_data_size             hsize_t                   3     HSIZE_BYTE
#   haddr                   integral                  32    'h3       
#   i_write                 integral                  1     'h1       
#   i_wrap_en               integral                  1     'h0X      
#   i_busy                  integral                  1     'h0X      
# --------------------------------------------------------------------
# 
# UVM_INFO .\TB\sv\ahb_slave_monitor.sv(84) @ 105: uvm_test_top.tb.env.slave_agent.monitor [ahb_slave_monitor] Packet Collected :
# ------------------------------------------------------------------
# Name                     Type                     Size  Value     
# ------------------------------------------------------------------
# ahb_slave_sequence_item  ahb_slave_sequence_item  -     @793      
#   haddr                  integral                 32    'h3       
#   hwrite                 integral                 1     'h1       
#   hburst                 burst_t                  3     WRAP8     
#   hsize                  hsize_t                  3     HSIZE_BYTE
#   htrans                 htrans_t                 2     SEQ       
#   hwdata                 integral                 32    'h6ee08065
#   hrdata                 integral                 32    'h0       
#   hready                 integral                 1     'h0X      
#   hresp                  integral                 1     'h0       
# ------------------------------------------------------------------
# 
# [COVER] OKAY COMPLETE observed
# UVM_INFO .\TB\sv\ahb_slave_monitor.sv(84) @ 115: uvm_test_top.tb.env.slave_agent.monitor [ahb_slave_monitor] Packet Collected :
# ------------------------------------------------------------------
# Name                     Type                     Size  Value     
# ------------------------------------------------------------------
# ahb_slave_sequence_item  ahb_slave_sequence_item  -     @817      
#   haddr                  integral                 32    'h4       
#   hwrite                 integral                 1     'h1       
#   hburst                 burst_t                  3     WRAP8     
#   hsize                  hsize_t                  3     HSIZE_BYTE
#   htrans                 htrans_t                 2     SEQ       
#   hwdata                 integral                 32    'h6ee08066
#   hrdata                 integral                 32    'h0       
#   hready                 integral                 1     'h0X      
#   hresp                  integral                 1     'h0       
# ------------------------------------------------------------------
# 
# UVM_INFO .\TB\sv\ahb_master_monitor.sv(74) @ 115: uvm_test_top.tb.env.master_agent.monitor [ahb_master_monitor] Packet Collected :
# --------------------------------------------------------------------
# Name                      Type                      Size  Value     
# --------------------------------------------------------------------
# ahb_master_sequence_item  ahb_master_sequence_item  -     @809      
#   i_addr                  integral                  32    'h0       
#   i_data                  integral                  32    'h6ee08066
#   i_burst_type            burst_t                   3     WRAP8     
#   i_data_size             hsize_t                   3     HSIZE_BYTE
#   haddr                   integral                  32    'h4       
#   i_write                 integral                  1     'h1       
#   i_wrap_en               integral                  1     'h0X      
#   i_busy                  integral                  1     'h0X      
# --------------------------------------------------------------------
# 
# [COVER] OKAY COMPLETE observed
# UVM_INFO .\TB\sv\ahb_master_monitor.sv(74) @ 125: uvm_test_top.tb.env.master_agent.monitor [ahb_master_monitor] Packet Collected :
# --------------------------------------------------------------------
# Name                      Type                      Size  Value     
# --------------------------------------------------------------------
# ahb_master_sequence_item  ahb_master_sequence_item  -     @833      
#   i_addr                  integral                  32    'h0       
#   i_data                  integral                  32    'h6ee08067
#   i_burst_type            burst_t                   3     WRAP8     
#   i_data_size             hsize_t                   3     HSIZE_BYTE
#   haddr                   integral                  32    'h5       
#   i_write                 integral                  1     'h1       
#   i_wrap_en               integral                  1     'h0X      
#   i_busy                  integral                  1     'h0X      
# --------------------------------------------------------------------
# 
# UVM_INFO .\TB\sv\ahb_slave_monitor.sv(84) @ 125: uvm_test_top.tb.env.slave_agent.monitor [ahb_slave_monitor] Packet Collected :
# ------------------------------------------------------------------
# Name                     Type                     Size  Value     
# ------------------------------------------------------------------
# ahb_slave_sequence_item  ahb_slave_sequence_item  -     @825      
#   haddr                  integral                 32    'h5       
#   hwrite                 integral                 1     'h1       
#   hburst                 burst_t                  3     WRAP8     
#   hsize                  hsize_t                  3     HSIZE_BYTE
#   htrans                 htrans_t                 2     SEQ       
#   hwdata                 integral                 32    'h6ee08067
#   hrdata                 integral                 32    'h0       
#   hready                 integral                 1     'h0X      
#   hresp                  integral                 1     'h0       
# ------------------------------------------------------------------
# 
# [COVER] OKAY COMPLETE observed
# UVM_INFO .\TB\sv\ahb_slave_monitor.sv(84) @ 135: uvm_test_top.tb.env.slave_agent.monitor [ahb_slave_monitor] Packet Collected :
# ------------------------------------------------------------------
# Name                     Type                     Size  Value     
# ------------------------------------------------------------------
# ahb_slave_sequence_item  ahb_slave_sequence_item  -     @849      
#   haddr                  integral                 32    'h6       
#   hwrite                 integral                 1     'h1       
#   hburst                 burst_t                  3     WRAP8     
#   hsize                  hsize_t                  3     HSIZE_BYTE
#   htrans                 htrans_t                 2     SEQ       
#   hwdata                 integral                 32    'h6ee08067
#   hrdata                 integral                 32    'h0       
#   hready                 integral                 1     'h0X      
#   hresp                  integral                 1     'h0       
# ------------------------------------------------------------------
# 
# UVM_INFO .\TB\sv\ahb_master_monitor.sv(74) @ 135: uvm_test_top.tb.env.master_agent.monitor [ahb_master_monitor] Packet Collected :
# --------------------------------------------------------------------
# Name                      Type                      Size  Value     
# --------------------------------------------------------------------
# ahb_master_sequence_item  ahb_master_sequence_item  -     @841      
#   i_addr                  integral                  32    'h0       
#   i_data                  integral                  32    'h6ee08067
#   i_burst_type            burst_t                   3     WRAP8     
#   i_data_size             hsize_t                   3     HSIZE_BYTE
#   haddr                   integral                  32    'h6       
#   i_write                 integral                  1     'h1       
#   i_wrap_en               integral                  1     'h0X      
#   i_busy                  integral                  1     'h0X      
# --------------------------------------------------------------------
# 
# [PASS] Wait State check OK
# [COVER] Wait State observed
# UVM_INFO .\TB\sv\ahb_slave_monitor.sv(84) @ 145: uvm_test_top.tb.env.slave_agent.monitor [ahb_slave_monitor] Packet Collected :
# ------------------------------------------------------------------
# Name                     Type                     Size  Value     
# ------------------------------------------------------------------
# ahb_slave_sequence_item  ahb_slave_sequence_item  -     @857      
#   haddr                  integral                 32    'h7       
#   hwrite                 integral                 1     'h1       
#   hburst                 burst_t                  3     WRAP8     
#   hsize                  hsize_t                  3     HSIZE_BYTE
#   htrans                 htrans_t                 2     SEQ       
#   hwdata                 integral                 32    'h6ee08067
#   hrdata                 integral                 32    'h0       
#   hready                 integral                 1     'h0X      
#   hresp                  integral                 1     'h0       
# ------------------------------------------------------------------
# 
# UVM_INFO .\TB\sv\ahb_master_monitor.sv(74) @ 145: uvm_test_top.tb.env.master_agent.monitor [ahb_master_monitor] Packet Collected :
# --------------------------------------------------------------------
# Name                      Type                      Size  Value     
# --------------------------------------------------------------------
# ahb_master_sequence_item  ahb_master_sequence_item  -     @865      
#   i_addr                  integral                  32    'h0       
#   i_data                  integral                  32    'h6ee08067
#   i_burst_type            burst_t                   3     WRAP8     
#   i_data_size             hsize_t                   3     HSIZE_BYTE
#   haddr                   integral                  32    'h7       
#   i_write                 integral                  1     'h1       
#   i_wrap_en               integral                  1     'h0X      
#   i_busy                  integral                  1     'h0X      
# --------------------------------------------------------------------
# 
# [COVER] OKAY COMPLETE observed
# UVM_INFO .\TB\sv\ahb_master_monitor.sv(74) @ 155: uvm_test_top.tb.env.master_agent.monitor [ahb_master_monitor] Packet Collected :
# --------------------------------------------------------------------
# Name                      Type                      Size  Value     
# --------------------------------------------------------------------
# ahb_master_sequence_item  ahb_master_sequence_item  -     @881      
#   i_addr                  integral                  32    'h0       
#   i_data                  integral                  32    'h6ee08068
#   i_burst_type            burst_t                   3     WRAP8     
#   i_data_size             hsize_t                   3     HSIZE_BYTE
#   haddr                   integral                  32    'h7       
#   i_write                 integral                  1     'h1       
#   i_wrap_en               integral                  1     'h0X      
#   i_busy                  integral                  1     'h0X      
# --------------------------------------------------------------------
# 
# UVM_INFO .\TB\sv\ahb_slave_monitor.sv(84) @ 155: uvm_test_top.tb.env.slave_agent.monitor [ahb_slave_monitor] Packet Collected :
# ------------------------------------------------------------------
# Name                     Type                     Size  Value     
# ------------------------------------------------------------------
# ahb_slave_sequence_item  ahb_slave_sequence_item  -     @873      
#   haddr                  integral                 32    'h7       
#   hwrite                 integral                 1     'h1       
#   hburst                 burst_t                  3     WRAP8     
#   hsize                  hsize_t                  3     HSIZE_BYTE
#   htrans                 htrans_t                 2     SEQ       
#   hwdata                 integral                 32    'h6ee08068
#   hrdata                 integral                 32    'h0       
#   hready                 integral                 1     'h0X      
#   hresp                  integral                 1     'h0       
# ------------------------------------------------------------------
# 
# [COVER] OKAY COMPLETE observed
# UVM_INFO .\TB\sv\ahb_slave_monitor.sv(84) @ 165: uvm_test_top.tb.env.slave_agent.monitor [ahb_slave_monitor] Packet Collected :
# ------------------------------------------------------------------
# Name                     Type                     Size  Value     
# ------------------------------------------------------------------
# ahb_slave_sequence_item  ahb_slave_sequence_item  -     @897      
#   haddr                  integral                 32    'h0       
#   hwrite                 integral                 1     'h1       
#   hburst                 burst_t                  3     WRAP8     
#   hsize                  hsize_t                  3     HSIZE_BYTE
#   htrans                 htrans_t                 2     SEQ       
#   hwdata                 integral                 32    'h6ee08069
#   hrdata                 integral                 32    'h0       
#   hready                 integral                 1     'h0X      
#   hresp                  integral                 1     'h0       
# ------------------------------------------------------------------
# 
# UVM_INFO .\TB\sv\ahb_master_monitor.sv(74) @ 165: uvm_test_top.tb.env.master_agent.monitor [ahb_master_monitor] Packet Collected :
# --------------------------------------------------------------------
# Name                      Type                      Size  Value     
# --------------------------------------------------------------------
# ahb_master_sequence_item  ahb_master_sequence_item  -     @889      
#   i_addr                  integral                  32    'h0       
#   i_data                  integral                  32    'h6ee08069
#   i_burst_type            burst_t                   3     WRAP8     
#   i_data_size             hsize_t                   3     HSIZE_BYTE
#   haddr                   integral                  32    'h0       
#   i_write                 integral                  1     'h1       
#   i_wrap_en               integral                  1     'h0X      
#   i_busy                  integral                  1     'h0X      
# --------------------------------------------------------------------
# 
# [COVER] OKAY COMPLETE observed
# UVM_INFO .\TB\sv\ahb_master_monitor.sv(74) @ 175: uvm_test_top.tb.env.master_agent.monitor [ahb_master_monitor] Packet Collected :
# --------------------------------------------------------------------
# Name                      Type                      Size  Value     
# --------------------------------------------------------------------
# ahb_master_sequence_item  ahb_master_sequence_item  -     @913      
#   i_addr                  integral                  32    'h0       
#   i_data                  integral                  32    'h6ee0806a
#   i_burst_type            burst_t                   3     WRAP8     
#   i_data_size             hsize_t                   3     HSIZE_BYTE
#   haddr                   integral                  32    'h1       
#   i_write                 integral                  1     'h1       
#   i_wrap_en               integral                  1     'h0X      
#   i_busy                  integral                  1     'h0X      
# --------------------------------------------------------------------
# 
# UVM_INFO .\TB\sv\ahb_slave_monitor.sv(84) @ 175: uvm_test_top.tb.env.slave_agent.monitor [ahb_slave_monitor] Packet Collected :
# ------------------------------------------------------------------
# Name                     Type                     Size  Value     
# ------------------------------------------------------------------
# ahb_slave_sequence_item  ahb_slave_sequence_item  -     @905      
#   haddr                  integral                 32    'h1       
#   hwrite                 integral                 1     'h1       
#   hburst                 burst_t                  3     WRAP8     
#   hsize                  hsize_t                  3     HSIZE_BYTE
#   htrans                 htrans_t                 2     SEQ       
#   hwdata                 integral                 32    'h6ee0806a
#   hrdata                 integral                 32    'h0       
#   hready                 integral                 1     'h0X      
#   hresp                  integral                 1     'h0       
# ------------------------------------------------------------------
# 
# [COVER] OKAY COMPLETE observed
# UVM_INFO .\TB\sv\ahb_slave_monitor.sv(84) @ 185: uvm_test_top.tb.env.slave_agent.monitor [ahb_slave_monitor] Packet Collected :
# ------------------------------------------------------------------
# Name                     Type                     Size  Value     
# ------------------------------------------------------------------
# ahb_slave_sequence_item  ahb_slave_sequence_item  -     @929      
#   haddr                  integral                 32    'h2       
#   hwrite                 integral                 1     'h1       
#   hburst                 burst_t                  3     WRAP8     
#   hsize                  hsize_t                  3     HSIZE_BYTE
#   htrans                 htrans_t                 2     SEQ       
#   hwdata                 integral                 32    'h6ee0806b
#   hrdata                 integral                 32    'h0       
#   hready                 integral                 1     'h0X      
#   hresp                  integral                 1     'h0       
# ------------------------------------------------------------------
# 
# UVM_INFO .\TB\sv\ahb_master_monitor.sv(74) @ 185: uvm_test_top.tb.env.master_agent.monitor [ahb_master_monitor] Packet Collected :
# --------------------------------------------------------------------
# Name                      Type                      Size  Value     
# --------------------------------------------------------------------
# ahb_master_sequence_item  ahb_master_sequence_item  -     @921      
#   i_addr                  integral                  32    'h0       
#   i_data                  integral                  32    'h6ee0806b
#   i_burst_type            burst_t                   3     WRAP8     
#   i_data_size             hsize_t                   3     HSIZE_BYTE
#   haddr                   integral                  32    'h2       
#   i_write                 integral                  1     'h1       
#   i_wrap_en               integral                  1     'h0X      
#   i_busy                  integral                  1     'h0X      
# --------------------------------------------------------------------
# 
# [COVER] OKAY COMPLETE observed
# UVM_INFO .\TB\sv\ahb_master_monitor.sv(74) @ 195: uvm_test_top.tb.env.master_agent.monitor [ahb_master_monitor] Packet Collected :
# --------------------------------------------------------------------
# Name                      Type                      Size  Value     
# --------------------------------------------------------------------
# ahb_master_sequence_item  ahb_master_sequence_item  -     @945      
#   i_addr                  integral                  32    'h0       
#   i_data                  integral                  32    'h6ee0806c
#   i_burst_type            burst_t                   3     WRAP8     
#   i_data_size             hsize_t                   3     HSIZE_BYTE
#   haddr                   integral                  32    'h3       
#   i_write                 integral                  1     'h1       
#   i_wrap_en               integral                  1     'h0X      
#   i_busy                  integral                  1     'h0X      
# --------------------------------------------------------------------
# 
# UVM_INFO .\TB\sv\ahb_slave_monitor.sv(84) @ 195: uvm_test_top.tb.env.slave_agent.monitor [ahb_slave_monitor] Packet Collected :
# ------------------------------------------------------------------
# Name                     Type                     Size  Value     
# ------------------------------------------------------------------
# ahb_slave_sequence_item  ahb_slave_sequence_item  -     @937      
#   haddr                  integral                 32    'h3       
#   hwrite                 integral                 1     'h1       
#   hburst                 burst_t                  3     WRAP8     
#   hsize                  hsize_t                  3     HSIZE_BYTE
#   htrans                 htrans_t                 2     SEQ       
#   hwdata                 integral                 32    'h6ee0806c
#   hrdata                 integral                 32    'h0       
#   hready                 integral                 1     'h0X      
#   hresp                  integral                 1     'h0       
# ------------------------------------------------------------------
# 
# [COVER] OKAY COMPLETE observed
# UVM_INFO .\TB\sv\ahb_slave_monitor.sv(84) @ 205: uvm_test_top.tb.env.slave_agent.monitor [ahb_slave_monitor] Packet Collected :
# ------------------------------------------------------------------
# Name                     Type                     Size  Value     
# ------------------------------------------------------------------
# ahb_slave_sequence_item  ahb_slave_sequence_item  -     @961      
#   haddr                  integral                 32    'h4       
#   hwrite                 integral                 1     'h1       
#   hburst                 burst_t                  3     WRAP8     
#   hsize                  hsize_t                  3     HSIZE_BYTE
#   htrans                 htrans_t                 2     SEQ       
#   hwdata                 integral                 32    'h6ee0806d
#   hrdata                 integral                 32    'h0       
#   hready                 integral                 1     'h0X      
#   hresp                  integral                 1     'h0       
# ------------------------------------------------------------------
# 
# UVM_INFO .\TB\sv\ahb_master_monitor.sv(74) @ 205: uvm_test_top.tb.env.master_agent.monitor [ahb_master_monitor] Packet Collected :
# --------------------------------------------------------------------
# Name                      Type                      Size  Value     
# --------------------------------------------------------------------
# ahb_master_sequence_item  ahb_master_sequence_item  -     @953      
#   i_addr                  integral                  32    'h0       
#   i_data                  integral                  32    'h6ee0806d
#   i_burst_type            burst_t                   3     WRAP8     
#   i_data_size             hsize_t                   3     HSIZE_BYTE
#   haddr                   integral                  32    'h4       
#   i_write                 integral                  1     'h1       
#   i_wrap_en               integral                  1     'h0X      
#   i_busy                  integral                  1     'h0X      
# --------------------------------------------------------------------
# 
# [COVER] OKAY COMPLETE observed
# UVM_INFO .\TB\sv\ahb_master_monitor.sv(74) @ 215: uvm_test_top.tb.env.master_agent.monitor [ahb_master_monitor] Packet Collected :
# --------------------------------------------------------------------
# Name                      Type                      Size  Value     
# --------------------------------------------------------------------
# ahb_master_sequence_item  ahb_master_sequence_item  -     @977      
#   i_addr                  integral                  32    'h0       
#   i_data                  integral                  32    'h6ee0806e
#   i_burst_type            burst_t                   3     WRAP8     
#   i_data_size             hsize_t                   3     HSIZE_BYTE
#   haddr                   integral                  32    'h5       
#   i_write                 integral                  1     'h1       
#   i_wrap_en               integral                  1     'h0X      
#   i_busy                  integral                  1     'h0X      
# --------------------------------------------------------------------
# 
# UVM_INFO .\TB\sv\ahb_slave_monitor.sv(84) @ 215: uvm_test_top.tb.env.slave_agent.monitor [ahb_slave_monitor] Packet Collected :
# ------------------------------------------------------------------
# Name                     Type                     Size  Value     
# ------------------------------------------------------------------
# ahb_slave_sequence_item  ahb_slave_sequence_item  -     @969      
#   haddr                  integral                 32    'h5       
#   hwrite                 integral                 1     'h1       
#   hburst                 burst_t                  3     WRAP8     
#   hsize                  hsize_t                  3     HSIZE_BYTE
#   htrans                 htrans_t                 2     SEQ       
#   hwdata                 integral                 32    'h6ee0806e
#   hrdata                 integral                 32    'h0       
#   hready                 integral                 1     'h0X      
#   hresp                  integral                 1     'h0       
# ------------------------------------------------------------------
# 
# [COVER] OKAY COMPLETE observed
# UVM_INFO .\TB\sv\ahb_slave_monitor.sv(84) @ 225: uvm_test_top.tb.env.slave_agent.monitor [ahb_slave_monitor] Packet Collected :
# ------------------------------------------------------------------
# Name                     Type                     Size  Value     
# ------------------------------------------------------------------
# ahb_slave_sequence_item  ahb_slave_sequence_item  -     @993      
#   haddr                  integral                 32    'h6       
#   hwrite                 integral                 1     'h1       
#   hburst                 burst_t                  3     WRAP8     
#   hsize                  hsize_t                  3     HSIZE_BYTE
#   htrans                 htrans_t                 2     SEQ       
#   hwdata                 integral                 32    'h6ee0806f
#   hrdata                 integral                 32    'h0       
#   hready                 integral                 1     'h0X      
#   hresp                  integral                 1     'h0       
# ------------------------------------------------------------------
# 
# UVM_INFO .\TB\sv\ahb_master_monitor.sv(74) @ 225: uvm_test_top.tb.env.master_agent.monitor [ahb_master_monitor] Packet Collected :
# --------------------------------------------------------------------
# Name                      Type                      Size  Value     
# --------------------------------------------------------------------
# ahb_master_sequence_item  ahb_master_sequence_item  -     @985      
#   i_addr                  integral                  32    'h0       
#   i_data                  integral                  32    'h6ee0806f
#   i_burst_type            burst_t                   3     WRAP8     
#   i_data_size             hsize_t                   3     HSIZE_BYTE
#   haddr                   integral                  32    'h6       
#   i_write                 integral                  1     'h1       
#   i_wrap_en               integral                  1     'h0X      
#   i_busy                  integral                  1     'h0X      
# --------------------------------------------------------------------
# 
# [COVER] OKAY COMPLETE observed
# UVM_INFO .\TB\sv\ahb_master_monitor.sv(74) @ 235: uvm_test_top.tb.env.master_agent.monitor [ahb_master_monitor] Packet Collected :
# --------------------------------------------------------------------
# Name                      Type                      Size  Value     
# --------------------------------------------------------------------
# ahb_master_sequence_item  ahb_master_sequence_item  -     @1009     
#   i_addr                  integral                  32    'h0       
#   i_data                  integral                  32    'h6ee08070
#   i_burst_type            burst_t                   3     WRAP8     
#   i_data_size             hsize_t                   3     HSIZE_BYTE
#   haddr                   integral                  32    'h7       
#   i_write                 integral                  1     'h1       
#   i_wrap_en               integral                  1     'h0X      
#   i_busy                  integral                  1     'h0X      
# --------------------------------------------------------------------
# 
# UVM_INFO .\TB\sv\ahb_slave_monitor.sv(84) @ 235: uvm_test_top.tb.env.slave_agent.monitor [ahb_slave_monitor] Packet Collected :
# ------------------------------------------------------------------
# Name                     Type                     Size  Value     
# ------------------------------------------------------------------
# ahb_slave_sequence_item  ahb_slave_sequence_item  -     @1001     
#   haddr                  integral                 32    'h7       
#   hwrite                 integral                 1     'h1       
#   hburst                 burst_t                  3     WRAP8     
#   hsize                  hsize_t                  3     HSIZE_BYTE
#   htrans                 htrans_t                 2     SEQ       
#   hwdata                 integral                 32    'h6ee08070
#   hrdata                 integral                 32    'h0       
#   hready                 integral                 1     'h0X      
#   hresp                  integral                 1     'h0       
# ------------------------------------------------------------------
# 
# [COVER] OKAY COMPLETE observed
# UVM_INFO .\TB\sv\ahb_slave_monitor.sv(84) @ 245: uvm_test_top.tb.env.slave_agent.monitor [ahb_slave_monitor] Packet Collected :
# ------------------------------------------------------------------
# Name                     Type                     Size  Value     
# ------------------------------------------------------------------
# ahb_slave_sequence_item  ahb_slave_sequence_item  -     @1025     
#   haddr                  integral                 32    'h0       
#   hwrite                 integral                 1     'h1       
#   hburst                 burst_t                  3     WRAP8     
#   hsize                  hsize_t                  3     HSIZE_BYTE
#   htrans                 htrans_t                 2     SEQ       
#   hwdata                 integral                 32    'h6ee08071
#   hrdata                 integral                 32    'h0       
#   hready                 integral                 1     'h0X      
#   hresp                  integral                 1     'h0       
# ------------------------------------------------------------------
# 
# UVM_INFO .\TB\sv\ahb_master_monitor.sv(74) @ 245: uvm_test_top.tb.env.master_agent.monitor [ahb_master_monitor] Packet Collected :
# --------------------------------------------------------------------
# Name                      Type                      Size  Value     
# --------------------------------------------------------------------
# ahb_master_sequence_item  ahb_master_sequence_item  -     @1017     
#   i_addr                  integral                  32    'h0       
#   i_data                  integral                  32    'h6ee08071
#   i_burst_type            burst_t                   3     WRAP8     
#   i_data_size             hsize_t                   3     HSIZE_BYTE
#   haddr                   integral                  32    'h0       
#   i_write                 integral                  1     'h1       
#   i_wrap_en               integral                  1     'h0X      
#   i_busy                  integral                  1     'h0X      
# --------------------------------------------------------------------
# 
# [COVER] OKAY COMPLETE observed
# UVM_INFO .\TB\sv\ahb_master_monitor.sv(74) @ 255: uvm_test_top.tb.env.master_agent.monitor [ahb_master_monitor] Packet Collected :
# --------------------------------------------------------------------
# Name                      Type                      Size  Value     
# --------------------------------------------------------------------
# ahb_master_sequence_item  ahb_master_sequence_item  -     @1041     
#   i_addr                  integral                  32    'h0       
#   i_data                  integral                  32    'h6ee08071
#   i_burst_type            burst_t                   3     WRAP8     
#   i_data_size             hsize_t                   3     HSIZE_BYTE
#   haddr                   integral                  32    'h1       
#   i_write                 integral                  1     'h1       
#   i_wrap_en               integral                  1     'h0X      
#   i_busy                  integral                  1     'h0X      
# --------------------------------------------------------------------
# 
# UVM_INFO .\TB\sv\ahb_slave_monitor.sv(84) @ 255: uvm_test_top.tb.env.slave_agent.monitor [ahb_slave_monitor] Packet Collected :
# ------------------------------------------------------------------
# Name                     Type                     Size  Value     
# ------------------------------------------------------------------
# ahb_slave_sequence_item  ahb_slave_sequence_item  -     @1033     
#   haddr                  integral                 32    'h1       
#   hwrite                 integral                 1     'h1       
#   hburst                 burst_t                  3     WRAP8     
#   hsize                  hsize_t                  3     HSIZE_BYTE
#   htrans                 htrans_t                 2     SEQ       
#   hwdata                 integral                 32    'h6ee08071
#   hrdata                 integral                 32    'h0       
#   hready                 integral                 1     'h0X      
#   hresp                  integral                 1     'h0       
# ------------------------------------------------------------------
# 
# [COVER] OKAY COMPLETE observed
# [COVER] OKAY COMPLETE observed
# [COVER] OKAY COMPLETE observed
# [COVER] OKAY COMPLETE observed
# Master First time Sample
# UVM_INFO .\TB\sv\ahb_master_monitor.sv(74) @ 315: uvm_test_top.tb.env.master_agent.monitor [ahb_master_monitor] Packet Collected :
# --------------------------------------------------------------------
# Name                      Type                      Size  Value     
# --------------------------------------------------------------------
# ahb_master_sequence_item  ahb_master_sequence_item  -     @1049     
#   i_addr                  integral                  32    'h0       
#   i_data                  integral                  32    'h6ee08071
#   i_burst_type            burst_t                   3     WRAP8     
#   i_data_size             hsize_t                   3     HSIZE_BYTE
#   haddr                   integral                  32    'h0       
#   i_write                 integral                  1     'h0       
#   i_wrap_en               integral                  1     'h0X      
#   i_busy                  integral                  1     'h0X      
# --------------------------------------------------------------------
# 
# Slave First time Sample
# UVM_INFO .\TB\sv\ahb_slave_monitor.sv(84) @ 315: uvm_test_top.tb.env.slave_agent.monitor [ahb_slave_monitor] Packet Collected :
# ------------------------------------------------------------------
# Name                     Type                     Size  Value     
# ------------------------------------------------------------------
# ahb_slave_sequence_item  ahb_slave_sequence_item  -     @1057     
#   haddr                  integral                 32    'h0       
#   hwrite                 integral                 1     'h0       
#   hburst                 burst_t                  3     WRAP8     
#   hsize                  hsize_t                  3     HSIZE_BYTE
#   htrans                 htrans_t                 2     SEQ       
#   hwdata                 integral                 32    'h6ee08071
#   hrdata                 integral                 32    'h71000000
#   hready                 integral                 1     'h0X      
#   hresp                  integral                 1     'h0       
# ------------------------------------------------------------------
# 
# [COVER] OKAY COMPLETE observed
# UVM_INFO .\TB\sv\ahb_slave_monitor.sv(84) @ 325: uvm_test_top.tb.env.slave_agent.monitor [ahb_slave_monitor] Packet Collected :
# ------------------------------------------------------------------
# Name                     Type                     Size  Value     
# ------------------------------------------------------------------
# ahb_slave_sequence_item  ahb_slave_sequence_item  -     @1073     
#   haddr                  integral                 32    'h1       
#   hwrite                 integral                 1     'h0       
#   hburst                 burst_t                  3     WRAP8     
#   hsize                  hsize_t                  3     HSIZE_BYTE
#   htrans                 htrans_t                 2     SEQ       
#   hwdata                 integral                 32    'h6ee08071
#   hrdata                 integral                 32    'h71000000
#   hready                 integral                 1     'h0X      
#   hresp                  integral                 1     'h0       
# ------------------------------------------------------------------
# 
# UVM_INFO .\TB\sv\ahb_master_monitor.sv(74) @ 325: uvm_test_top.tb.env.master_agent.monitor [ahb_master_monitor] Packet Collected :
# --------------------------------------------------------------------
# Name                      Type                      Size  Value     
# --------------------------------------------------------------------
# ahb_master_sequence_item  ahb_master_sequence_item  -     @1065     
#   i_addr                  integral                  32    'h0       
#   i_data                  integral                  32    'h6ee08071
#   i_burst_type            burst_t                   3     WRAP8     
#   i_data_size             hsize_t                   3     HSIZE_BYTE
#   haddr                   integral                  32    'h1       
#   i_write                 integral                  1     'h0       
#   i_wrap_en               integral                  1     'h0X      
#   i_busy                  integral                  1     'h0X      
# --------------------------------------------------------------------
# 
# [COVER] OKAY COMPLETE observed
# UVM_INFO .\TB\sv\ahb_master_monitor.sv(74) @ 335: uvm_test_top.tb.env.master_agent.monitor [ahb_master_monitor] Packet Collected :
# --------------------------------------------------------------------
# Name                      Type                      Size  Value     
# --------------------------------------------------------------------
# ahb_master_sequence_item  ahb_master_sequence_item  -     @1089     
#   i_addr                  integral                  32    'h0       
#   i_data                  integral                  32    'h6ee08071
#   i_burst_type            burst_t                   3     WRAP8     
#   i_data_size             hsize_t                   3     HSIZE_BYTE
#   haddr                   integral                  32    'h2       
#   i_write                 integral                  1     'h0       
#   i_wrap_en               integral                  1     'h0X      
#   i_busy                  integral                  1     'h0X      
# --------------------------------------------------------------------
# 
# UVM_INFO .\TB\sv\ahb_slave_monitor.sv(84) @ 335: uvm_test_top.tb.env.slave_agent.monitor [ahb_slave_monitor] Packet Collected :
# ------------------------------------------------------------------
# Name                     Type                     Size  Value     
# ------------------------------------------------------------------
# ahb_slave_sequence_item  ahb_slave_sequence_item  -     @1081     
#   haddr                  integral                 32    'h2       
#   hwrite                 integral                 1     'h0       
#   hburst                 burst_t                  3     WRAP8     
#   hsize                  hsize_t                  3     HSIZE_BYTE
#   htrans                 htrans_t                 2     SEQ       
#   hwdata                 integral                 32    'h6ee08071
#   hrdata                 integral                 32    'h71000000
#   hready                 integral                 1     'h0X      
#   hresp                  integral                 1     'h0       
# ------------------------------------------------------------------
# 
# [COVER] OKAY COMPLETE observed
# UVM_INFO .\TB\sv\ahb_slave_monitor.sv(84) @ 345: uvm_test_top.tb.env.slave_agent.monitor [ahb_slave_monitor] Packet Collected :
# ------------------------------------------------------------------
# Name                     Type                     Size  Value     
# ------------------------------------------------------------------
# ahb_slave_sequence_item  ahb_slave_sequence_item  -     @1105     
#   haddr                  integral                 32    'h3       
#   hwrite                 integral                 1     'h0       
#   hburst                 burst_t                  3     WRAP8     
#   hsize                  hsize_t                  3     HSIZE_BYTE
#   htrans                 htrans_t                 2     SEQ       
#   hwdata                 integral                 32    'h6ee08071
#   hrdata                 integral                 32    'h6c000000
#   hready                 integral                 1     'h0X      
#   hresp                  integral                 1     'h0       
# ------------------------------------------------------------------
# 
# UVM_INFO .\TB\sv\ahb_master_monitor.sv(74) @ 345: uvm_test_top.tb.env.master_agent.monitor [ahb_master_monitor] Packet Collected :
# --------------------------------------------------------------------
# Name                      Type                      Size  Value     
# --------------------------------------------------------------------
# ahb_master_sequence_item  ahb_master_sequence_item  -     @1097     
#   i_addr                  integral                  32    'h0       
#   i_data                  integral                  32    'h6ee08071
#   i_burst_type            burst_t                   3     WRAP8     
#   i_data_size             hsize_t                   3     HSIZE_BYTE
#   haddr                   integral                  32    'h3       
#   i_write                 integral                  1     'h0       
#   i_wrap_en               integral                  1     'h0X      
#   i_busy                  integral                  1     'h0X      
# --------------------------------------------------------------------
# 
# [COVER] OKAY COMPLETE observed
# UVM_INFO .\TB\sv\ahb_master_monitor.sv(74) @ 355: uvm_test_top.tb.env.master_agent.monitor [ahb_master_monitor] Packet Collected :
# --------------------------------------------------------------------
# Name                      Type                      Size  Value     
# --------------------------------------------------------------------
# ahb_master_sequence_item  ahb_master_sequence_item  -     @1121     
#   i_addr                  integral                  32    'h0       
#   i_data                  integral                  32    'h6ee08071
#   i_burst_type            burst_t                   3     WRAP8     
#   i_data_size             hsize_t                   3     HSIZE_BYTE
#   haddr                   integral                  32    'h4       
#   i_write                 integral                  1     'h0       
#   i_wrap_en               integral                  1     'h0X      
#   i_busy                  integral                  1     'h0X      
# --------------------------------------------------------------------
# 
# UVM_INFO .\TB\sv\ahb_slave_monitor.sv(84) @ 355: uvm_test_top.tb.env.slave_agent.monitor [ahb_slave_monitor] Packet Collected :
# ------------------------------------------------------------------
# Name                     Type                     Size  Value     
# ------------------------------------------------------------------
# ahb_slave_sequence_item  ahb_slave_sequence_item  -     @1113     
#   haddr                  integral                 32    'h4       
#   hwrite                 integral                 1     'h0       
#   hburst                 burst_t                  3     WRAP8     
#   hsize                  hsize_t                  3     HSIZE_BYTE
#   htrans                 htrans_t                 2     SEQ       
#   hwdata                 integral                 32    'h6ee08071
#   hrdata                 integral                 32    'h6d000000
#   hready                 integral                 1     'h0X      
#   hresp                  integral                 1     'h0       
# ------------------------------------------------------------------
# 
# [COVER] OKAY COMPLETE observed
# UVM_INFO .\TB\sv\ahb_slave_monitor.sv(84) @ 365: uvm_test_top.tb.env.slave_agent.monitor [ahb_slave_monitor] Packet Collected :
# ------------------------------------------------------------------
# Name                     Type                     Size  Value     
# ------------------------------------------------------------------
# ahb_slave_sequence_item  ahb_slave_sequence_item  -     @1137     
#   haddr                  integral                 32    'h5       
#   hwrite                 integral                 1     'h0       
#   hburst                 burst_t                  3     WRAP8     
#   hsize                  hsize_t                  3     HSIZE_BYTE
#   htrans                 htrans_t                 2     SEQ       
#   hwdata                 integral                 32    'h6ee08071
#   hrdata                 integral                 32    'h0       
#   hready                 integral                 1     'h0X      
#   hresp                  integral                 1     'h0       
# ------------------------------------------------------------------
# 
# UVM_INFO .\TB\sv\ahb_master_monitor.sv(74) @ 365: uvm_test_top.tb.env.master_agent.monitor [ahb_master_monitor] Packet Collected :
# --------------------------------------------------------------------
# Name                      Type                      Size  Value     
# --------------------------------------------------------------------
# ahb_master_sequence_item  ahb_master_sequence_item  -     @1129     
#   i_addr                  integral                  32    'h0       
#   i_data                  integral                  32    'h6ee08071
#   i_burst_type            burst_t                   3     WRAP8     
#   i_data_size             hsize_t                   3     HSIZE_BYTE
#   haddr                   integral                  32    'h5       
#   i_write                 integral                  1     'h0       
#   i_wrap_en               integral                  1     'h0X      
#   i_busy                  integral                  1     'h0X      
# --------------------------------------------------------------------
# 
# [PASS] Wait State check OK
# [COVER] Wait State observed
# UVM_INFO .\TB\sv\ahb_slave_monitor.sv(84) @ 375: uvm_test_top.tb.env.slave_agent.monitor [ahb_slave_monitor] Packet Collected :
# ------------------------------------------------------------------
# Name                     Type                     Size  Value     
# ------------------------------------------------------------------
# ahb_slave_sequence_item  ahb_slave_sequence_item  -     @1145     
#   haddr                  integral                 32    'h6       
#   hwrite                 integral                 1     'h0       
#   hburst                 burst_t                  3     WRAP8     
#   hsize                  hsize_t                  3     HSIZE_BYTE
#   htrans                 htrans_t                 2     SEQ       
#   hwdata                 integral                 32    'h6ee08071
#   hrdata                 integral                 32    'h6e000000
#   hready                 integral                 1     'h0X      
#   hresp                  integral                 1     'h0       
# ------------------------------------------------------------------
# 
# UVM_INFO .\TB\sv\ahb_master_monitor.sv(74) @ 375: uvm_test_top.tb.env.master_agent.monitor [ahb_master_monitor] Packet Collected :
# --------------------------------------------------------------------
# Name                      Type                      Size  Value     
# --------------------------------------------------------------------
# ahb_master_sequence_item  ahb_master_sequence_item  -     @1153     
#   i_addr                  integral                  32    'h0       
#   i_data                  integral                  32    'h6ee08071
#   i_burst_type            burst_t                   3     WRAP8     
#   i_data_size             hsize_t                   3     HSIZE_BYTE
#   haddr                   integral                  32    'h6       
#   i_write                 integral                  1     'h0       
#   i_wrap_en               integral                  1     'h0X      
#   i_busy                  integral                  1     'h0X      
# --------------------------------------------------------------------
# 
# [COVER] OKAY COMPLETE observed
# UVM_INFO .\TB\sv\ahb_master_monitor.sv(74) @ 385: uvm_test_top.tb.env.master_agent.monitor [ahb_master_monitor] Packet Collected :
# --------------------------------------------------------------------
# Name                      Type                      Size  Value     
# --------------------------------------------------------------------
# ahb_master_sequence_item  ahb_master_sequence_item  -     @1169     
#   i_addr                  integral                  32    'h0       
#   i_data                  integral                  32    'h6ee08071
#   i_burst_type            burst_t                   3     WRAP8     
#   i_data_size             hsize_t                   3     HSIZE_BYTE
#   haddr                   integral                  32    'h6       
#   i_write                 integral                  1     'h0       
#   i_wrap_en               integral                  1     'h0X      
#   i_busy                  integral                  1     'h0X      
# --------------------------------------------------------------------
# 
# UVM_INFO .\TB\sv\ahb_slave_monitor.sv(84) @ 385: uvm_test_top.tb.env.slave_agent.monitor [ahb_slave_monitor] Packet Collected :
# ------------------------------------------------------------------
# Name                     Type                     Size  Value     
# ------------------------------------------------------------------
# ahb_slave_sequence_item  ahb_slave_sequence_item  -     @1161     
#   haddr                  integral                 32    'h6       
#   hwrite                 integral                 1     'h0       
#   hburst                 burst_t                  3     WRAP8     
#   hsize                  hsize_t                  3     HSIZE_BYTE
#   htrans                 htrans_t                 2     SEQ       
#   hwdata                 integral                 32    'h6ee08071
#   hrdata                 integral                 32    'h6f000000
#   hready                 integral                 1     'h0X      
#   hresp                  integral                 1     'h0       
# ------------------------------------------------------------------
# 
# [COVER] OKAY COMPLETE observed
# UVM_INFO .\TB\sv\ahb_slave_monitor.sv(84) @ 395: uvm_test_top.tb.env.slave_agent.monitor [ahb_slave_monitor] Packet Collected :
# ------------------------------------------------------------------
# Name                     Type                     Size  Value     
# ------------------------------------------------------------------
# ahb_slave_sequence_item  ahb_slave_sequence_item  -     @1185     
#   haddr                  integral                 32    'h7       
#   hwrite                 integral                 1     'h0       
#   hburst                 burst_t                  3     WRAP8     
#   hsize                  hsize_t                  3     HSIZE_BYTE
#   htrans                 htrans_t                 2     SEQ       
#   hwdata                 integral                 32    'h6ee08071
#   hrdata                 integral                 32    'h70000000
#   hready                 integral                 1     'h0X      
#   hresp                  integral                 1     'h0       
# ------------------------------------------------------------------
# 
# UVM_INFO .\TB\sv\ahb_master_monitor.sv(74) @ 395: uvm_test_top.tb.env.master_agent.monitor [ahb_master_monitor] Packet Collected :
# --------------------------------------------------------------------
# Name                      Type                      Size  Value     
# --------------------------------------------------------------------
# ahb_master_sequence_item  ahb_master_sequence_item  -     @1177     
#   i_addr                  integral                  32    'h0       
#   i_data                  integral                  32    'h6ee08071
#   i_burst_type            burst_t                   3     WRAP8     
#   i_data_size             hsize_t                   3     HSIZE_BYTE
#   haddr                   integral                  32    'h7       
#   i_write                 integral                  1     'h0       
#   i_wrap_en               integral                  1     'h0X      
#   i_busy                  integral                  1     'h0X      
# --------------------------------------------------------------------
# 
# [COVER] OKAY COMPLETE observed
# UVM_INFO .\TB\sv\ahb_master_monitor.sv(74) @ 405: uvm_test_top.tb.env.master_agent.monitor [ahb_master_monitor] Packet Collected :
# --------------------------------------------------------------------
# Name                      Type                      Size  Value     
# --------------------------------------------------------------------
# ahb_master_sequence_item  ahb_master_sequence_item  -     @1201     
#   i_addr                  integral                  32    'h0       
#   i_data                  integral                  32    'h6ee08071
#   i_burst_type            burst_t                   3     WRAP8     
#   i_data_size             hsize_t                   3     HSIZE_BYTE
#   haddr                   integral                  32    'h0       
#   i_write                 integral                  1     'h0       
#   i_wrap_en               integral                  1     'h0X      
#   i_busy                  integral                  1     'h0X      
# --------------------------------------------------------------------
# 
# UVM_INFO .\TB\sv\ahb_slave_monitor.sv(84) @ 405: uvm_test_top.tb.env.slave_agent.monitor [ahb_slave_monitor] Packet Collected :
# ------------------------------------------------------------------
# Name                     Type                     Size  Value     
# ------------------------------------------------------------------
# ahb_slave_sequence_item  ahb_slave_sequence_item  -     @1193     
#   haddr                  integral                 32    'h0       
#   hwrite                 integral                 1     'h0       
#   hburst                 burst_t                  3     WRAP8     
#   hsize                  hsize_t                  3     HSIZE_BYTE
#   htrans                 htrans_t                 2     SEQ       
#   hwdata                 integral                 32    'h6ee08071
#   hrdata                 integral                 32    'h71000000
#   hready                 integral                 1     'h0X      
#   hresp                  integral                 1     'h0       
# ------------------------------------------------------------------
# 
# [COVER] OKAY COMPLETE observed
# UVM_INFO .\TB\sv\ahb_slave_monitor.sv(84) @ 415: uvm_test_top.tb.env.slave_agent.monitor [ahb_slave_monitor] Packet Collected :
# ------------------------------------------------------------------
# Name                     Type                     Size  Value     
# ------------------------------------------------------------------
# ahb_slave_sequence_item  ahb_slave_sequence_item  -     @1217     
#   haddr                  integral                 32    'h1       
#   hwrite                 integral                 1     'h0       
#   hburst                 burst_t                  3     WRAP8     
#   hsize                  hsize_t                  3     HSIZE_BYTE
#   htrans                 htrans_t                 2     SEQ       
#   hwdata                 integral                 32    'h6ee08071
#   hrdata                 integral                 32    'h71000000
#   hready                 integral                 1     'h0X      
#   hresp                  integral                 1     'h0       
# ------------------------------------------------------------------
# 
# UVM_INFO .\TB\sv\ahb_master_monitor.sv(74) @ 415: uvm_test_top.tb.env.master_agent.monitor [ahb_master_monitor] Packet Collected :
# --------------------------------------------------------------------
# Name                      Type                      Size  Value     
# --------------------------------------------------------------------
# ahb_master_sequence_item  ahb_master_sequence_item  -     @1209     
#   i_addr                  integral                  32    'h0       
#   i_data                  integral                  32    'h6ee08071
#   i_burst_type            burst_t                   3     WRAP8     
#   i_data_size             hsize_t                   3     HSIZE_BYTE
#   haddr                   integral                  32    'h1       
#   i_write                 integral                  1     'h0       
#   i_wrap_en               integral                  1     'h0X      
#   i_busy                  integral                  1     'h0X      
# --------------------------------------------------------------------
# 
# [COVER] OKAY COMPLETE observed
# UVM_INFO .\TB\sv\ahb_master_monitor.sv(74) @ 425: uvm_test_top.tb.env.master_agent.monitor [ahb_master_monitor] Packet Collected :
# --------------------------------------------------------------------
# Name                      Type                      Size  Value     
# --------------------------------------------------------------------
# ahb_master_sequence_item  ahb_master_sequence_item  -     @1233     
#   i_addr                  integral                  32    'h0       
#   i_data                  integral                  32    'h6ee08071
#   i_burst_type            burst_t                   3     WRAP8     
#   i_data_size             hsize_t                   3     HSIZE_BYTE
#   haddr                   integral                  32    'h2       
#   i_write                 integral                  1     'h0       
#   i_wrap_en               integral                  1     'h0X      
#   i_busy                  integral                  1     'h0X      
# --------------------------------------------------------------------
# 
# UVM_INFO .\TB\sv\ahb_slave_monitor.sv(84) @ 425: uvm_test_top.tb.env.slave_agent.monitor [ahb_slave_monitor] Packet Collected :
# ------------------------------------------------------------------
# Name                     Type                     Size  Value     
# ------------------------------------------------------------------
# ahb_slave_sequence_item  ahb_slave_sequence_item  -     @1225     
#   haddr                  integral                 32    'h2       
#   hwrite                 integral                 1     'h0       
#   hburst                 burst_t                  3     WRAP8     
#   hsize                  hsize_t                  3     HSIZE_BYTE
#   htrans                 htrans_t                 2     SEQ       
#   hwdata                 integral                 32    'h6ee08071
#   hrdata                 integral                 32    'h71000000
#   hready                 integral                 1     'h0X      
#   hresp                  integral                 1     'h0       
# ------------------------------------------------------------------
# 
# [COVER] OKAY COMPLETE observed
# UVM_INFO .\TB\sv\ahb_slave_monitor.sv(84) @ 435: uvm_test_top.tb.env.slave_agent.monitor [ahb_slave_monitor] Packet Collected :
# ------------------------------------------------------------------
# Name                     Type                     Size  Value     
# ------------------------------------------------------------------
# ahb_slave_sequence_item  ahb_slave_sequence_item  -     @1249     
#   haddr                  integral                 32    'h3       
#   hwrite                 integral                 1     'h0       
#   hburst                 burst_t                  3     WRAP8     
#   hsize                  hsize_t                  3     HSIZE_BYTE
#   htrans                 htrans_t                 2     SEQ       
#   hwdata                 integral                 32    'h6ee08071
#   hrdata                 integral                 32    'h6c000000
#   hready                 integral                 1     'h0X      
#   hresp                  integral                 1     'h0       
# ------------------------------------------------------------------
# 
# UVM_INFO .\TB\sv\ahb_master_monitor.sv(74) @ 435: uvm_test_top.tb.env.master_agent.monitor [ahb_master_monitor] Packet Collected :
# --------------------------------------------------------------------
# Name                      Type                      Size  Value     
# --------------------------------------------------------------------
# ahb_master_sequence_item  ahb_master_sequence_item  -     @1241     
#   i_addr                  integral                  32    'h0       
#   i_data                  integral                  32    'h6ee08071
#   i_burst_type            burst_t                   3     WRAP8     
#   i_data_size             hsize_t                   3     HSIZE_BYTE
#   haddr                   integral                  32    'h3       
#   i_write                 integral                  1     'h0       
#   i_wrap_en               integral                  1     'h0X      
#   i_busy                  integral                  1     'h0X      
# --------------------------------------------------------------------
# 
# [COVER] OKAY COMPLETE observed
# UVM_INFO .\TB\sv\ahb_master_monitor.sv(74) @ 445: uvm_test_top.tb.env.master_agent.monitor [ahb_master_monitor] Packet Collected :
# --------------------------------------------------------------------
# Name                      Type                      Size  Value     
# --------------------------------------------------------------------
# ahb_master_sequence_item  ahb_master_sequence_item  -     @1265     
#   i_addr                  integral                  32    'h0       
#   i_data                  integral                  32    'h6ee08071
#   i_burst_type            burst_t                   3     WRAP8     
#   i_data_size             hsize_t                   3     HSIZE_BYTE
#   haddr                   integral                  32    'h4       
#   i_write                 integral                  1     'h0       
#   i_wrap_en               integral                  1     'h0X      
#   i_busy                  integral                  1     'h0X      
# --------------------------------------------------------------------
# 
# UVM_INFO .\TB\sv\ahb_slave_monitor.sv(84) @ 445: uvm_test_top.tb.env.slave_agent.monitor [ahb_slave_monitor] Packet Collected :
# ------------------------------------------------------------------
# Name                     Type                     Size  Value     
# ------------------------------------------------------------------
# ahb_slave_sequence_item  ahb_slave_sequence_item  -     @1257     
#   haddr                  integral                 32    'h4       
#   hwrite                 integral                 1     'h0       
#   hburst                 burst_t                  3     WRAP8     
#   hsize                  hsize_t                  3     HSIZE_BYTE
#   htrans                 htrans_t                 2     SEQ       
#   hwdata                 integral                 32    'h6ee08071
#   hrdata                 integral                 32    'h6d000000
#   hready                 integral                 1     'h0X      
#   hresp                  integral                 1     'h0       
# ------------------------------------------------------------------
# 
# [COVER] OKAY COMPLETE observed
# UVM_INFO .\TB\sv\ahb_slave_monitor.sv(84) @ 455: uvm_test_top.tb.env.slave_agent.monitor [ahb_slave_monitor] Packet Collected :
# ------------------------------------------------------------------
# Name                     Type                     Size  Value     
# ------------------------------------------------------------------
# ahb_slave_sequence_item  ahb_slave_sequence_item  -     @1281     
#   haddr                  integral                 32    'h5       
#   hwrite                 integral                 1     'h0       
#   hburst                 burst_t                  3     WRAP8     
#   hsize                  hsize_t                  3     HSIZE_BYTE
#   htrans                 htrans_t                 2     SEQ       
#   hwdata                 integral                 32    'h6ee08071
#   hrdata                 integral                 32    'h6e000000
#   hready                 integral                 1     'h0X      
#   hresp                  integral                 1     'h0       
# ------------------------------------------------------------------
# 
# UVM_INFO .\TB\sv\ahb_master_monitor.sv(74) @ 455: uvm_test_top.tb.env.master_agent.monitor [ahb_master_monitor] Packet Collected :
# --------------------------------------------------------------------
# Name                      Type                      Size  Value     
# --------------------------------------------------------------------
# ahb_master_sequence_item  ahb_master_sequence_item  -     @1273     
#   i_addr                  integral                  32    'h0       
#   i_data                  integral                  32    'h6ee08071
#   i_burst_type            burst_t                   3     WRAP8     
#   i_data_size             hsize_t                   3     HSIZE_BYTE
#   haddr                   integral                  32    'h5       
#   i_write                 integral                  1     'h0       
#   i_wrap_en               integral                  1     'h0X      
#   i_busy                  integral                  1     'h0X      
# --------------------------------------------------------------------
# 
# [COVER] OKAY COMPLETE observed
# UVM_INFO .\TB\sv\ahb_master_monitor.sv(74) @ 465: uvm_test_top.tb.env.master_agent.monitor [ahb_master_monitor] Packet Collected :
# --------------------------------------------------------------------
# Name                      Type                      Size  Value     
# --------------------------------------------------------------------
# ahb_master_sequence_item  ahb_master_sequence_item  -     @1297     
#   i_addr                  integral                  32    'h0       
#   i_data                  integral                  32    'h6ee08071
#   i_burst_type            burst_t                   3     WRAP8     
#   i_data_size             hsize_t                   3     HSIZE_BYTE
#   haddr                   integral                  32    'h6       
#   i_write                 integral                  1     'h0       
#   i_wrap_en               integral                  1     'h0X      
#   i_busy                  integral                  1     'h0X      
# --------------------------------------------------------------------
# 
# UVM_INFO .\TB\sv\ahb_slave_monitor.sv(84) @ 465: uvm_test_top.tb.env.slave_agent.monitor [ahb_slave_monitor] Packet Collected :
# ------------------------------------------------------------------
# Name                     Type                     Size  Value     
# ------------------------------------------------------------------
# ahb_slave_sequence_item  ahb_slave_sequence_item  -     @1289     
#   haddr                  integral                 32    'h6       
#   hwrite                 integral                 1     'h0       
#   hburst                 burst_t                  3     WRAP8     
#   hsize                  hsize_t                  3     HSIZE_BYTE
#   htrans                 htrans_t                 2     SEQ       
#   hwdata                 integral                 32    'h6ee08071
#   hrdata                 integral                 32    'h6f000000
#   hready                 integral                 1     'h0X      
#   hresp                  integral                 1     'h0       
# ------------------------------------------------------------------
# 
# [COVER] OKAY COMPLETE observed
# UVM_INFO .\TB\sv\ahb_slave_monitor.sv(84) @ 475: uvm_test_top.tb.env.slave_agent.monitor [ahb_slave_monitor] Packet Collected :
# ------------------------------------------------------------------
# Name                     Type                     Size  Value     
# ------------------------------------------------------------------
# ahb_slave_sequence_item  ahb_slave_sequence_item  -     @1313     
#   haddr                  integral                 32    'h7       
#   hwrite                 integral                 1     'h0       
#   hburst                 burst_t                  3     WRAP8     
#   hsize                  hsize_t                  3     HSIZE_BYTE
#   htrans                 htrans_t                 2     SEQ       
#   hwdata                 integral                 32    'h6ee08071
#   hrdata                 integral                 32    'h70000000
#   hready                 integral                 1     'h0X      
#   hresp                  integral                 1     'h0       
# ------------------------------------------------------------------
# 
# UVM_INFO .\TB\sv\ahb_master_monitor.sv(74) @ 475: uvm_test_top.tb.env.master_agent.monitor [ahb_master_monitor] Packet Collected :
# --------------------------------------------------------------------
# Name                      Type                      Size  Value     
# --------------------------------------------------------------------
# ahb_master_sequence_item  ahb_master_sequence_item  -     @1305     
#   i_addr                  integral                  32    'h0       
#   i_data                  integral                  32    'h6ee08071
#   i_burst_type            burst_t                   3     WRAP8     
#   i_data_size             hsize_t                   3     HSIZE_BYTE
#   haddr                   integral                  32    'h7       
#   i_write                 integral                  1     'h0       
#   i_wrap_en               integral                  1     'h0X      
#   i_busy                  integral                  1     'h0X      
# --------------------------------------------------------------------
# 
# [COVER] OKAY COMPLETE observed
# UVM_INFO .\TB\sv\ahb_master_monitor.sv(74) @ 485: uvm_test_top.tb.env.master_agent.monitor [ahb_master_monitor] Packet Collected :
# --------------------------------------------------------------------
# Name                      Type                      Size  Value     
# --------------------------------------------------------------------
# ahb_master_sequence_item  ahb_master_sequence_item  -     @1329     
#   i_addr                  integral                  32    'h0       
#   i_data                  integral                  32    'h6ee08071
#   i_burst_type            burst_t                   3     WRAP8     
#   i_data_size             hsize_t                   3     HSIZE_BYTE
#   haddr                   integral                  32    'h0       
#   i_write                 integral                  1     'h0       
#   i_wrap_en               integral                  1     'h0X      
#   i_busy                  integral                  1     'h0X      
# --------------------------------------------------------------------
# 
# UVM_INFO .\TB\sv\ahb_slave_monitor.sv(84) @ 485: uvm_test_top.tb.env.slave_agent.monitor [ahb_slave_monitor] Packet Collected :
# ------------------------------------------------------------------
# Name                     Type                     Size  Value     
# ------------------------------------------------------------------
# ahb_slave_sequence_item  ahb_slave_sequence_item  -     @1321     
#   haddr                  integral                 32    'h0       
#   hwrite                 integral                 1     'h0       
#   hburst                 burst_t                  3     WRAP8     
#   hsize                  hsize_t                  3     HSIZE_BYTE
#   htrans                 htrans_t                 2     SEQ       
#   hwdata                 integral                 32    'h6ee08071
#   hrdata                 integral                 32    'h71000000
#   hready                 integral                 1     'h0X      
#   hresp                  integral                 1     'h0       
# ------------------------------------------------------------------
# 
# UVM_INFO .\TB\sv\ahb_master_sequences.sv(48) @ 485: uvm_test_top.tb.env.master_agent.sequencer@@ahb_master_wait_state_sequences [ahb_master_wait_state_sequences] drop objection
# [COVER] OKAY COMPLETE observed
# [COVER] OKAY COMPLETE observed
# [COVER] OKAY COMPLETE observed
# [COVER] OKAY COMPLETE observed
# [COVER] OKAY COMPLETE observed
# [COVER] OKAY COMPLETE observed
# [COVER] OKAY COMPLETE observed
# [COVER] OKAY COMPLETE observed
# [COVER] OKAY COMPLETE observed
# [COVER] OKAY COMPLETE observed
# [COVER] OKAY COMPLETE observed
# [COVER] OKAY COMPLETE observed
# [COVER] OKAY COMPLETE observed
# [COVER] OKAY COMPLETE observed
# [COVER] OKAY COMPLETE observed
# [COVER] OKAY COMPLETE observed
# [COVER] OKAY COMPLETE observed
# [COVER] OKAY COMPLETE observed
# [COVER] OKAY COMPLETE observed
# [COVER] OKAY COMPLETE observed
# UVM_INFO C:/questasim64_10.7c/verilog_src/uvm-1.1d/src/base/uvm_objection.svh(1243) @ 685: reporter [TEST_DONE] All end-of-test objections have been dropped. Calling stop tasks
# UVM_INFO C:/questasim64_10.7c/verilog_src/uvm-1.1d/src/base/uvm_objection.svh(1267) @ 685: reporter [TEST_DONE] 'run' phase is ready to proceed to the 'extract' phase
# UVM_INFO .\TB\sv\ahb_scoreboard.sv(271) @ 685: uvm_test_top.tb.env.ahb_scb [SCOREBOARD_ADDR] ADDR PASS: expected=0x0 actual=0x0 burst=WRAP8 size=HSIZE_BYTE
# UVM_INFO .\TB\sv\ahb_scoreboard.sv(298) @ 685: uvm_test_top.tb.env.ahb_scb [SCOREBOARD_DATA] WRITE PASS: addr=0x0 data=0x6ee08062
# UVM_INFO .\TB\sv\ahb_scoreboard.sv(271) @ 685: uvm_test_top.tb.env.ahb_scb [SCOREBOARD_ADDR] ADDR PASS: expected=0x1 actual=0x1 burst=WRAP8 size=HSIZE_BYTE
# UVM_INFO .\TB\sv\ahb_scoreboard.sv(298) @ 685: uvm_test_top.tb.env.ahb_scb [SCOREBOARD_DATA] WRITE PASS: addr=0x1 data=0x6ee08063
# UVM_INFO .\TB\sv\ahb_scoreboard.sv(271) @ 685: uvm_test_top.tb.env.ahb_scb [SCOREBOARD_ADDR] ADDR PASS: expected=0x2 actual=0x2 burst=WRAP8 size=HSIZE_BYTE
# UVM_INFO .\TB\sv\ahb_scoreboard.sv(298) @ 685: uvm_test_top.tb.env.ahb_scb [SCOREBOARD_DATA] WRITE PASS: addr=0x2 data=0x6ee08064
# UVM_INFO .\TB\sv\ahb_scoreboard.sv(271) @ 685: uvm_test_top.tb.env.ahb_scb [SCOREBOARD_ADDR] ADDR PASS: expected=0x3 actual=0x3 burst=WRAP8 size=HSIZE_BYTE
# UVM_INFO .\TB\sv\ahb_scoreboard.sv(298) @ 685: uvm_test_top.tb.env.ahb_scb [SCOREBOARD_DATA] WRITE PASS: addr=0x3 data=0x6ee08065
# UVM_INFO .\TB\sv\ahb_scoreboard.sv(271) @ 685: uvm_test_top.tb.env.ahb_scb [SCOREBOARD_ADDR] ADDR PASS: expected=0x4 actual=0x4 burst=WRAP8 size=HSIZE_BYTE
# UVM_INFO .\TB\sv\ahb_scoreboard.sv(298) @ 685: uvm_test_top.tb.env.ahb_scb [SCOREBOARD_DATA] WRITE PASS: addr=0x4 data=0x6ee08066
# UVM_INFO .\TB\sv\ahb_scoreboard.sv(271) @ 685: uvm_test_top.tb.env.ahb_scb [SCOREBOARD_ADDR] ADDR PASS: expected=0x5 actual=0x5 burst=WRAP8 size=HSIZE_BYTE
# UVM_INFO .\TB\sv\ahb_scoreboard.sv(298) @ 685: uvm_test_top.tb.env.ahb_scb [SCOREBOARD_DATA] WRITE PASS: addr=0x5 data=0x6ee08067
# UVM_INFO .\TB\sv\ahb_scoreboard.sv(271) @ 685: uvm_test_top.tb.env.ahb_scb [SCOREBOARD_ADDR] ADDR PASS: expected=0x6 actual=0x6 burst=WRAP8 size=HSIZE_BYTE
# UVM_INFO .\TB\sv\ahb_scoreboard.sv(298) @ 685: uvm_test_top.tb.env.ahb_scb [SCOREBOARD_DATA] WRITE PASS: addr=0x6 data=0x6ee08067
# UVM_INFO .\TB\sv\ahb_scoreboard.sv(271) @ 685: uvm_test_top.tb.env.ahb_scb [SCOREBOARD_ADDR] ADDR PASS: expected=0x7 actual=0x7 burst=WRAP8 size=HSIZE_BYTE
