#  log -r /*
#  run -all
# ----------------------------------------------------------------
# UVM-1.1d
# (C) 2007-2013 Mentor Graphics Corporation
# (C) 2007-2013 Cadence Design Systems, Inc.
# (C) 2006-2013 Synopsys, Inc.
# (C) 2011-2013 Cypress Semiconductor Corp.
# ----------------------------------------------------------------
# 
#   ***********       IMPORTANT RELEASE NOTES         ************
# 
#   You are using a version of the UVM library that has been compiled
#   with `UVM_NO_DEPRECATED undefined.
#   See http://www.eda.org/svdb/view.php?id=3313 for more details.
# 
#   You are using a version of the UVM library that has been compiled
#   with `UVM_OBJECT_MUST_HAVE_CONSTRUCTOR undefined.
#   See http://www.eda.org/svdb/view.php?id=3770 for more details.
# 
#       (Specify +UVM_NO_RELNOTES to turn off this notice)
# 
# UVM_INFO C:/questasim64_10.7c/verilog_src/uvm-1.1d/src/base/uvm_root.svh(370) @ 0: reporter [NO_DPI_TSTNAME] UVM_NO_DPI defined--getting UVM_TESTNAME directly, without DPI
# UVM_INFO @ 0: reporter [RNTST] Running test ahb_master_random_30_test...
# UVM_INFO .\TB\tb\ahb_tb.sv(18) @ 0: uvm_test_top.tb [ahb_tb] Testbench Build Phase is being executed !
# UVM_INFO .\TB\sv\ahb_master_agent.sv(23) @ 0: uvm_test_top.tb.env.master_agent [CFG] Property is_active exists in config DB
# UVM_INFO .\TB\sv\ahb_master_agent.sv(34) @ 0: uvm_test_top.tb.env.master_agent [ahb_master_agent] AGENT IS ACTIVE !
# UVM_INFO .\TB\sv\ahb_slave_agent.sv(23) @ 0: uvm_test_top.tb.env.slave_agent [CFG] Property is_active exists in config DB
# UVM_INFO .\TB\sv\ahb_master_driver.sv(24) @ 0: uvm_test_top.tb.env.master_agent.driver [ahb_master_driver] Driver is connected with interface
# UVM_INFO .\TB\sv\ahb_master_monitor.sv(26) @ 0: uvm_test_top.tb.env.master_agent.monitor [ahb_master_monitor] Driver is connected with interface
# UVM_INFO .\TB\sv\ahb_slave_monitor.sv(26) @ 0: uvm_test_top.tb.env.slave_agent.monitor [ahb_slave_monitor] Driver is connected with interface
# UVM_INFO .\TB\tb\ahb_test_lib.sv(25) @ 0: uvm_test_top [ahb_master_random_30_test] End of Elaboration Phase of Test is being executed!
# UVM_INFO @ 0: reporter [UVMTOP] UVM testbench topology:
# ---------------------------------------------------------------------
# Name                           Type                       Size  Value
# ---------------------------------------------------------------------
# uvm_test_top                   ahb_master_random_30_test  -     @452 
#   tb                           ahb_tb                     -     @471 
#     env                        ahb_env                    -     @478 
#       ahb_scb                  ahb_scoreboard             -     @499 
#         master_imp             uvm_analysis_imp_master    -     @506 
#           recording_detail     integral                   32    'd1  
#         slave_imp              uvm_analysis_imp_slave     -     @514 
#           recording_detail     integral                   32    'd1  
#         recording_detail       integral                   32    'd1  
#       master_agent             ahb_master_agent           -     @485 
#         driver                 ahb_master_driver          -     @555 
#           rsp_port             uvm_analysis_port          -     @570 
#             recording_detail   integral                   32    'd1  
#           seq_item_port        uvm_seq_item_pull_port     -     @562 
#             recording_detail   integral                   32    'd1  
#           recording_detail     integral                   32    'd1  
#         monitor                ahb_master_monitor         -     @538 
#           item_collected_port  uvm_analysis_port          -     @545 
#             recording_detail   integral                   32    'd1  
#           recording_detail     integral                   32    'd1  
#         sequencer              ahb_master_sequencer       -     @578 
#           rsp_export           uvm_analysis_export        -     @585 
#             recording_detail   integral                   32    'd1  
#           seq_item_export      uvm_seq_item_pull_imp      -     @679 
#             recording_detail   integral                   32    'd1  
#           recording_detail     integral                   32    'd1  
#           arbitration_queue    array                      0     -    
#           lock_queue           array                      0     -    
#           num_last_reqs        integral                   32    'd1  
#           num_last_rsps        integral                   32    'd1  
#         recording_detail       integral                   32    'd1  
#       slave_agent              ahb_slave_agent            -     @492 
#         monitor                ahb_slave_monitor          -     @693 
#           item_collected_port  uvm_analysis_port          -     @700 
#             recording_detail   integral                   32    'd1  
#           recording_detail     integral                   32    'd1  
#         recording_detail       integral                   32    'd1  
#       slave_cov                func_cov                   -     @522 
#         analysis_imp           uvm_analysis_imp           -     @529 
#           recording_detail     integral                   32    'd1  
#         recording_detail       integral                   32    'd1  
#       recording_detail         integral                   32    'd1  
#     recording_detail           integral                   32    'd1  
# ---------------------------------------------------------------------
# 
# UVM_INFO .\TB\sv\ahb_master_driver.sv(28) @ 0: uvm_test_top.tb.env.master_agent.driver [ahb_master_driver] start of simulation for uvm_test_top.tb.env.master_agent.driver
# UVM_INFO .\TB\sv\ahb_master_monitor.sv(30) @ 0: uvm_test_top.tb.env.master_agent.monitor [ahb_master_monitor] start of simulation for uvm_test_top.tb.env.master_agent.monitor
# UVM_INFO .\TB\sv\ahb_master_agent.sv(48) @ 0: uvm_test_top.tb.env.master_agent [ahb_master_agent] start of simulation for uvm_test_top.tb.env.master_agent
# UVM_INFO .\TB\sv\ahb_slave_monitor.sv(30) @ 0: uvm_test_top.tb.env.slave_agent.monitor [ahb_slave_monitor] start of simulation for uvm_test_top.tb.env.slave_agent.monitor
# UVM_INFO .\TB\sv\ahb_slave_agent.sv(48) @ 0: uvm_test_top.tb.env.slave_agent [ahb_slave_agent] start of simulation for uvm_test_top.tb.env.slave_agent
# UVM_INFO .\TB\sv\ahb_env.sv(34) @ 0: uvm_test_top.tb.env [ahb_env] start of simulation for uvm_test_top.tb.env
# UVM_INFO .\TB\tb\ahb_tb.sv(22) @ 0: uvm_test_top.tb [ahb_tb] start of simulation for uvm_test_top.tb
# UVM_INFO .\TB\tb\ahb_test_lib.sv(34) @ 0: uvm_test_top [ahb_master_random_30_test] Run Phase of Test is being executed!
# UVM_INFO .\TB\tb\ahb_test_lib.sv(37) @ 0: uvm_test_top [ahb_master_random_30_test] Raise objection in run phase
# UVM_INFO .\TB\tb\ahb_test_lib.sv(39) @ 0: uvm_test_top [ahb_master_random_30_test] Drop objection in run phase
# UVM_INFO .\TB\tb\ahb_tb.sv(26) @ 0: uvm_test_top.tb [ahb_tb] Testbench Run Phase is begin executed!
# UVM_INFO C:/questasim64_10.7c/verilog_src/uvm-1.1d/src/seq/uvm_sequencer_base.svh(1390) @ 0: uvm_test_top.tb.env.master_agent.sequencer [PHASESEQ] Starting default sequence 'ahb_master_random_30_sequences' for phase 'run'
# UVM_INFO .\TB\sv\ahb_master_driver.sv(32) @ 0: uvm_test_top.tb.env.master_agent.driver [ahb_master_driver] Driver is running
# UVM_INFO .\TB\sv\ahb_master_sequences.sv(28) @ 0: uvm_test_top.tb.env.master_agent.sequencer@@ahb_master_random_30_sequences [ahb_master_random_30_sequences] raise objection
# UVM_INFO .\TB\sv\ahb_master_sequences.sv(271) @ 0: uvm_test_top.tb.env.master_agent.sequencer@@ahb_master_random_30_sequences [ahb_master_random_30_sequences] Executing ahb_master_random_30_sequences
# UVM_INFO C:/questasim64_10.7c/verilog_src/uvm-1.1d/src/seq/uvm_sequencer_base.svh(1384) @ 0: uvm_test_top.tb.env.master_agent.sequencer [PHASESEQ] No default phase sequence for phase 'pre_reset'
# UVM_INFO C:/questasim64_10.7c/verilog_src/uvm-1.1d/src/seq/uvm_sequencer_base.svh(1384) @ 0: uvm_test_top.tb.env.master_agent.sequencer [PHASESEQ] No default phase sequence for phase 'reset'
# UVM_INFO C:/questasim64_10.7c/verilog_src/uvm-1.1d/src/seq/uvm_sequencer_base.svh(1384) @ 0: uvm_test_top.tb.env.master_agent.sequencer [PHASESEQ] No default phase sequence for phase 'post_reset'
# UVM_INFO C:/questasim64_10.7c/verilog_src/uvm-1.1d/src/seq/uvm_sequencer_base.svh(1384) @ 0: uvm_test_top.tb.env.master_agent.sequencer [PHASESEQ] No default phase sequence for phase 'pre_configure'
# UVM_INFO C:/questasim64_10.7c/verilog_src/uvm-1.1d/src/seq/uvm_sequencer_base.svh(1384) @ 0: uvm_test_top.tb.env.master_agent.sequencer [PHASESEQ] No default phase sequence for phase 'configure'
# UVM_INFO C:/questasim64_10.7c/verilog_src/uvm-1.1d/src/seq/uvm_sequencer_base.svh(1384) @ 0: uvm_test_top.tb.env.master_agent.sequencer [PHASESEQ] No default phase sequence for phase 'post_configure'
# UVM_INFO C:/questasim64_10.7c/verilog_src/uvm-1.1d/src/seq/uvm_sequencer_base.svh(1384) @ 0: uvm_test_top.tb.env.master_agent.sequencer [PHASESEQ] No default phase sequence for phase 'pre_main'
# UVM_INFO C:/questasim64_10.7c/verilog_src/uvm-1.1d/src/seq/uvm_sequencer_base.svh(1384) @ 0: uvm_test_top.tb.env.master_agent.sequencer [PHASESEQ] No default phase sequence for phase 'main'
# UVM_INFO C:/questasim64_10.7c/verilog_src/uvm-1.1d/src/seq/uvm_sequencer_base.svh(1384) @ 0: uvm_test_top.tb.env.master_agent.sequencer [PHASESEQ] No default phase sequence for phase 'post_main'
# UVM_INFO C:/questasim64_10.7c/verilog_src/uvm-1.1d/src/seq/uvm_sequencer_base.svh(1384) @ 0: uvm_test_top.tb.env.master_agent.sequencer [PHASESEQ] No default phase sequence for phase 'pre_shutdown'
# UVM_INFO C:/questasim64_10.7c/verilog_src/uvm-1.1d/src/seq/uvm_sequencer_base.svh(1384) @ 0: uvm_test_top.tb.env.master_agent.sequencer [PHASESEQ] No default phase sequence for phase 'shutdown'
# UVM_INFO C:/questasim64_10.7c/verilog_src/uvm-1.1d/src/seq/uvm_sequencer_base.svh(1384) @ 0: uvm_test_top.tb.env.master_agent.sequencer [PHASESEQ] No default phase sequence for phase 'post_shutdown'
# UVM_INFO .\TB\sv\ahb_slave_monitor.sv(37) @ 25: uvm_test_top.tb.env.slave_agent.monitor [ahb_slave_monitor] Detected Reset Done
# UVM_INFO .\TB\sv\ahb_master_monitor.sv(37) @ 25: uvm_test_top.tb.env.master_agent.monitor [ahb_master_monitor] Detected Reset Done
# UVM_INFO .\TB\sv\ahb_master_driver.sv(37) @ 25: uvm_test_top.tb.env.master_agent.driver [ahb_master_driver] Detected Reset Done
# UVM_INFO .\TB\sv\ahb_master_driver.sv(50) @ 25: uvm_test_top.tb.env.master_agent.driver [ahb_master_driver] Sending Packet :
# ----------------------------------------------------------------------------------------------------------------------------------------
# Name                           Type                      Size  Value                                                                    
# ----------------------------------------------------------------------------------------------------------------------------------------
# req                            ahb_master_sequence_item  -     @720                                                                     
#   i_addr                       integral                  32    'h7d8                                                                    
#   i_data                       integral                  32    'h94c516a9                                                               
#   i_burst_type                 burst_t                   3     INCR8                                                                    
#   i_data_size                  hsize_t                   3     HSIZE_HWORD                                                              
#   haddr                        integral                  32    'h0xxxxxxxx                                                              
#   i_write                      integral                  1     'h0X                                                                     
#   i_wrap_en                    integral                  1     'h0X                                                                     
#   i_busy                       integral                  1     'h0X                                                                     
#   begin_time                   time                      64    25                                                                       
#   depth                        int                       32    'd2                                                                      
#   parent sequence (name)       string                    30    ahb_master_random_30_sequences                                           
#   parent sequence (full name)  string                    73    uvm_test_top.tb.env.master_agent.sequencer.ahb_master_random_30_sequences
#   sequencer                    string                    42    uvm_test_top.tb.env.master_agent.sequencer                               
# ----------------------------------------------------------------------------------------------------------------------------------------
# 
# [COVER] OKAY COMPLETE observed
# [COVER] OKAY COMPLETE observed
# [COVER] OKAY COMPLETE observed
# [COVER] OKAY COMPLETE observed
# [COVER] OKAY COMPLETE observed
# Slave First time Sample
# UVM_INFO .\TB\sv\ahb_slave_monitor.sv(84) @ 75: uvm_test_top.tb.env.slave_agent.monitor [ahb_slave_monitor] Packet Collected :
# -------------------------------------------------------------------
# Name                     Type                     Size  Value      
# -------------------------------------------------------------------
# ahb_slave_sequence_item  ahb_slave_sequence_item  -     @748       
#   haddr                  integral                 32    'h7d8      
#   hwrite                 integral                 1     'h1        
#   hburst                 burst_t                  3     INCR8      
#   hsize                  hsize_t                  3     HSIZE_HWORD
#   htrans                 htrans_t                 2     NONSEQ     
#   hwdata                 integral                 32    'h94c516a9 
#   hrdata                 integral                 32    'h0        
#   hready                 integral                 1     'h0X       
#   hresp                  integral                 1     'h0        
# -------------------------------------------------------------------
# 
# Master First time Sample
# UVM_INFO .\TB\sv\ahb_master_monitor.sv(74) @ 75: uvm_test_top.tb.env.master_agent.monitor [ahb_master_monitor] Packet Collected :
# ---------------------------------------------------------------------
# Name                      Type                      Size  Value      
# ---------------------------------------------------------------------
# ahb_master_sequence_item  ahb_master_sequence_item  -     @752       
#   i_addr                  integral                  32    'h0        
#   i_data                  integral                  32    'h94c516a9 
#   i_burst_type            burst_t                   3     INCR8      
#   i_data_size             hsize_t                   3     HSIZE_HWORD
#   haddr                   integral                  32    'h7d8      
#   i_write                 integral                  1     'h1        
#   i_wrap_en               integral                  1     'h0X       
#   i_busy                  integral                  1     'h0X       
# ---------------------------------------------------------------------
# 
# [COVER] OKAY COMPLETE observed
# UVM_INFO .\TB\sv\ahb_master_monitor.sv(74) @ 85: uvm_test_top.tb.env.master_agent.monitor [ahb_master_monitor] Packet Collected :
# ---------------------------------------------------------------------
# Name                      Type                      Size  Value      
# ---------------------------------------------------------------------
# ahb_master_sequence_item  ahb_master_sequence_item  -     @769       
#   i_addr                  integral                  32    'h0        
#   i_data                  integral                  32    'h94c516aa 
#   i_burst_type            burst_t                   3     INCR8      
#   i_data_size             hsize_t                   3     HSIZE_HWORD
#   haddr                   integral                  32    'h7da      
#   i_write                 integral                  1     'h1        
#   i_wrap_en               integral                  1     'h0X       
#   i_busy                  integral                  1     'h0X       
# ---------------------------------------------------------------------
# 
# UVM_INFO .\TB\sv\ahb_slave_monitor.sv(84) @ 85: uvm_test_top.tb.env.slave_agent.monitor [ahb_slave_monitor] Packet Collected :
# -------------------------------------------------------------------
# Name                     Type                     Size  Value      
# -------------------------------------------------------------------
# ahb_slave_sequence_item  ahb_slave_sequence_item  -     @761       
#   haddr                  integral                 32    'h7da      
#   hwrite                 integral                 1     'h1        
#   hburst                 burst_t                  3     INCR8      
#   hsize                  hsize_t                  3     HSIZE_HWORD
#   htrans                 htrans_t                 2     SEQ        
#   hwdata                 integral                 32    'h94c516aa 
#   hrdata                 integral                 32    'h0        
#   hready                 integral                 1     'h0X       
#   hresp                  integral                 1     'h0        
# -------------------------------------------------------------------
# 
# [COVER] OKAY COMPLETE observed
# UVM_INFO .\TB\sv\ahb_slave_monitor.sv(84) @ 95: uvm_test_top.tb.env.slave_agent.monitor [ahb_slave_monitor] Packet Collected :
# -------------------------------------------------------------------
# Name                     Type                     Size  Value      
# -------------------------------------------------------------------
# ahb_slave_sequence_item  ahb_slave_sequence_item  -     @785       
#   haddr                  integral                 32    'h7dc      
#   hwrite                 integral                 1     'h1        
#   hburst                 burst_t                  3     INCR8      
#   hsize                  hsize_t                  3     HSIZE_HWORD
#   htrans                 htrans_t                 2     SEQ        
#   hwdata                 integral                 32    'h94c516ab 
#   hrdata                 integral                 32    'h0        
#   hready                 integral                 1     'h0X       
#   hresp                  integral                 1     'h0        
# -------------------------------------------------------------------
# 
# UVM_INFO .\TB\sv\ahb_master_monitor.sv(74) @ 95: uvm_test_top.tb.env.master_agent.monitor [ahb_master_monitor] Packet Collected :
# ---------------------------------------------------------------------
# Name                      Type                      Size  Value      
# ---------------------------------------------------------------------
# ahb_master_sequence_item  ahb_master_sequence_item  -     @777       
#   i_addr                  integral                  32    'h0        
#   i_data                  integral                  32    'h94c516ab 
#   i_burst_type            burst_t                   3     INCR8      
#   i_data_size             hsize_t                   3     HSIZE_HWORD
#   haddr                   integral                  32    'h7dc      
#   i_write                 integral                  1     'h1        
#   i_wrap_en               integral                  1     'h0X       
#   i_busy                  integral                  1     'h0X       
# ---------------------------------------------------------------------
# 
# [COVER] OKAY COMPLETE observed
# UVM_INFO .\TB\sv\ahb_master_monitor.sv(74) @ 105: uvm_test_top.tb.env.master_agent.monitor [ahb_master_monitor] Packet Collected :
# ---------------------------------------------------------------------
# Name                      Type                      Size  Value      
# ---------------------------------------------------------------------
# ahb_master_sequence_item  ahb_master_sequence_item  -     @801       
#   i_addr                  integral                  32    'h0        
#   i_data                  integral                  32    'h94c516ac 
#   i_burst_type            burst_t                   3     INCR8      
#   i_data_size             hsize_t                   3     HSIZE_HWORD
#   haddr                   integral                  32    'h7de      
#   i_write                 integral                  1     'h1        
#   i_wrap_en               integral                  1     'h0X       
#   i_busy                  integral                  1     'h0X       
# ---------------------------------------------------------------------
# 
# UVM_INFO .\TB\sv\ahb_slave_monitor.sv(84) @ 105: uvm_test_top.tb.env.slave_agent.monitor [ahb_slave_monitor] Packet Collected :
# -------------------------------------------------------------------
# Name                     Type                     Size  Value      
# -------------------------------------------------------------------
# ahb_slave_sequence_item  ahb_slave_sequence_item  -     @793       
#   haddr                  integral                 32    'h7de      
#   hwrite                 integral                 1     'h1        
#   hburst                 burst_t                  3     INCR8      
#   hsize                  hsize_t                  3     HSIZE_HWORD
#   htrans                 htrans_t                 2     SEQ        
#   hwdata                 integral                 32    'h94c516ac 
#   hrdata                 integral                 32    'h0        
#   hready                 integral                 1     'h0X       
#   hresp                  integral                 1     'h0        
# -------------------------------------------------------------------
# 
# [COVER] OKAY COMPLETE observed
# UVM_INFO .\TB\sv\ahb_slave_monitor.sv(84) @ 115: uvm_test_top.tb.env.slave_agent.monitor [ahb_slave_monitor] Packet Collected :
# -------------------------------------------------------------------
# Name                     Type                     Size  Value      
# -------------------------------------------------------------------
# ahb_slave_sequence_item  ahb_slave_sequence_item  -     @817       
#   haddr                  integral                 32    'h7e0      
#   hwrite                 integral                 1     'h1        
#   hburst                 burst_t                  3     INCR8      
#   hsize                  hsize_t                  3     HSIZE_HWORD
#   htrans                 htrans_t                 2     SEQ        
#   hwdata                 integral                 32    'h94c516ad 
#   hrdata                 integral                 32    'h0        
#   hready                 integral                 1     'h0X       
#   hresp                  integral                 1     'h0        
# -------------------------------------------------------------------
# 
# UVM_INFO .\TB\sv\ahb_master_monitor.sv(74) @ 115: uvm_test_top.tb.env.master_agent.monitor [ahb_master_monitor] Packet Collected :
# ---------------------------------------------------------------------
# Name                      Type                      Size  Value      
# ---------------------------------------------------------------------
# ahb_master_sequence_item  ahb_master_sequence_item  -     @809       
#   i_addr                  integral                  32    'h0        
#   i_data                  integral                  32    'h94c516ad 
#   i_burst_type            burst_t                   3     INCR8      
#   i_data_size             hsize_t                   3     HSIZE_HWORD
#   haddr                   integral                  32    'h7e0      
#   i_write                 integral                  1     'h1        
#   i_wrap_en               integral                  1     'h0X       
#   i_busy                  integral                  1     'h0X       
# ---------------------------------------------------------------------
# 
# [COVER] OKAY COMPLETE observed
# UVM_INFO .\TB\sv\ahb_master_monitor.sv(74) @ 125: uvm_test_top.tb.env.master_agent.monitor [ahb_master_monitor] Packet Collected :
# ---------------------------------------------------------------------
# Name                      Type                      Size  Value      
# ---------------------------------------------------------------------
# ahb_master_sequence_item  ahb_master_sequence_item  -     @833       
#   i_addr                  integral                  32    'h0        
#   i_data                  integral                  32    'h94c516ae 
#   i_burst_type            burst_t                   3     INCR8      
#   i_data_size             hsize_t                   3     HSIZE_HWORD
#   haddr                   integral                  32    'h7e2      
#   i_write                 integral                  1     'h1        
#   i_wrap_en               integral                  1     'h0X       
#   i_busy                  integral                  1     'h0X       
# ---------------------------------------------------------------------
# 
# UVM_INFO .\TB\sv\ahb_slave_monitor.sv(84) @ 125: uvm_test_top.tb.env.slave_agent.monitor [ahb_slave_monitor] Packet Collected :
# -------------------------------------------------------------------
# Name                     Type                     Size  Value      
# -------------------------------------------------------------------
# ahb_slave_sequence_item  ahb_slave_sequence_item  -     @825       
#   haddr                  integral                 32    'h7e2      
#   hwrite                 integral                 1     'h1        
#   hburst                 burst_t                  3     INCR8      
#   hsize                  hsize_t                  3     HSIZE_HWORD
#   htrans                 htrans_t                 2     SEQ        
#   hwdata                 integral                 32    'h94c516ae 
#   hrdata                 integral                 32    'h0        
#   hready                 integral                 1     'h0X       
#   hresp                  integral                 1     'h0        
# -------------------------------------------------------------------
# 
# [COVER] OKAY COMPLETE observed
# UVM_INFO .\TB\sv\ahb_slave_monitor.sv(84) @ 135: uvm_test_top.tb.env.slave_agent.monitor [ahb_slave_monitor] Packet Collected :
# -------------------------------------------------------------------
# Name                     Type                     Size  Value      
# -------------------------------------------------------------------
# ahb_slave_sequence_item  ahb_slave_sequence_item  -     @849       
#   haddr                  integral                 32    'h7e4      
#   hwrite                 integral                 1     'h1        
#   hburst                 burst_t                  3     INCR8      
#   hsize                  hsize_t                  3     HSIZE_HWORD
#   htrans                 htrans_t                 2     SEQ        
#   hwdata                 integral                 32    'h94c516af 
#   hrdata                 integral                 32    'h0        
#   hready                 integral                 1     'h0X       
#   hresp                  integral                 1     'h0        
# -------------------------------------------------------------------
# 
# UVM_INFO .\TB\sv\ahb_master_monitor.sv(74) @ 135: uvm_test_top.tb.env.master_agent.monitor [ahb_master_monitor] Packet Collected :
# ---------------------------------------------------------------------
# Name                      Type                      Size  Value      
# ---------------------------------------------------------------------
# ahb_master_sequence_item  ahb_master_sequence_item  -     @841       
#   i_addr                  integral                  32    'h0        
#   i_data                  integral                  32    'h94c516af 
#   i_burst_type            burst_t                   3     INCR8      
#   i_data_size             hsize_t                   3     HSIZE_HWORD
#   haddr                   integral                  32    'h7e4      
#   i_write                 integral                  1     'h1        
#   i_wrap_en               integral                  1     'h0X       
#   i_busy                  integral                  1     'h0X       
# ---------------------------------------------------------------------
# 
# [COVER] OKAY COMPLETE observed
# UVM_INFO .\TB\sv\ahb_master_monitor.sv(74) @ 145: uvm_test_top.tb.env.master_agent.monitor [ahb_master_monitor] Packet Collected :
# ---------------------------------------------------------------------
# Name                      Type                      Size  Value      
# ---------------------------------------------------------------------
# ahb_master_sequence_item  ahb_master_sequence_item  -     @865       
#   i_addr                  integral                  32    'h0        
#   i_data                  integral                  32    'h94c516b0 
#   i_burst_type            burst_t                   3     INCR8      
#   i_data_size             hsize_t                   3     HSIZE_HWORD
#   haddr                   integral                  32    'h7e6      
#   i_write                 integral                  1     'h1        
#   i_wrap_en               integral                  1     'h0X       
#   i_busy                  integral                  1     'h0X       
# ---------------------------------------------------------------------
# 
# UVM_INFO .\TB\sv\ahb_slave_monitor.sv(84) @ 145: uvm_test_top.tb.env.slave_agent.monitor [ahb_slave_monitor] Packet Collected :
# -------------------------------------------------------------------
# Name                     Type                     Size  Value      
# -------------------------------------------------------------------
# ahb_slave_sequence_item  ahb_slave_sequence_item  -     @857       
#   haddr                  integral                 32    'h7e6      
#   hwrite                 integral                 1     'h1        
#   hburst                 burst_t                  3     INCR8      
#   hsize                  hsize_t                  3     HSIZE_HWORD
#   htrans                 htrans_t                 2     SEQ        
#   hwdata                 integral                 32    'h94c516b0 
#   hrdata                 integral                 32    'h0        
#   hready                 integral                 1     'h0X       
#   hresp                  integral                 1     'h0        
# -------------------------------------------------------------------
# 
# [COVER] OKAY COMPLETE observed
# [COVER] OKAY COMPLETE observed
# [COVER] OKAY COMPLETE observed
# [COVER] OKAY COMPLETE observed
# [COVER] OKAY COMPLETE observed
# Master First time Sample
# UVM_INFO .\TB\sv\ahb_master_monitor.sv(74) @ 195: uvm_test_top.tb.env.master_agent.monitor [ahb_master_monitor] Packet Collected :
# ---------------------------------------------------------------------
# Name                      Type                      Size  Value      
# ---------------------------------------------------------------------
# ahb_master_sequence_item  ahb_master_sequence_item  -     @873       
#   i_addr                  integral                  32    'h0        
#   i_data                  integral                  32    'h94c516b0 
#   i_burst_type            burst_t                   3     INCR8      
#   i_data_size             hsize_t                   3     HSIZE_HWORD
#   haddr                   integral                  32    'h7d8      
#   i_write                 integral                  1     'h0        
#   i_wrap_en               integral                  1     'h0X       
#   i_busy                  integral                  1     'h0X       
# ---------------------------------------------------------------------
# 
# Slave First time Sample
# UVM_INFO .\TB\sv\ahb_slave_monitor.sv(84) @ 195: uvm_test_top.tb.env.slave_agent.monitor [ahb_slave_monitor] Packet Collected :
# -------------------------------------------------------------------
# Name                     Type                     Size  Value      
# -------------------------------------------------------------------
# ahb_slave_sequence_item  ahb_slave_sequence_item  -     @881       
#   haddr                  integral                 32    'h7d8      
#   hwrite                 integral                 1     'h0        
#   hburst                 burst_t                  3     INCR8      
#   hsize                  hsize_t                  3     HSIZE_HWORD
#   htrans                 htrans_t                 2     NONSEQ     
#   hwdata                 integral                 32    'h0        
#   hrdata                 integral                 32    'h16a90000 
#   hready                 integral                 1     'h0X       
#   hresp                  integral                 1     'h0        
# -------------------------------------------------------------------
# 
# [COVER] OKAY COMPLETE observed
# UVM_INFO .\TB\sv\ahb_slave_monitor.sv(84) @ 205: uvm_test_top.tb.env.slave_agent.monitor [ahb_slave_monitor] Packet Collected :
# -------------------------------------------------------------------
# Name                     Type                     Size  Value      
# -------------------------------------------------------------------
# ahb_slave_sequence_item  ahb_slave_sequence_item  -     @897       
#   haddr                  integral                 32    'h7da      
#   hwrite                 integral                 1     'h0        
#   hburst                 burst_t                  3     INCR8      
#   hsize                  hsize_t                  3     HSIZE_HWORD
#   htrans                 htrans_t                 2     SEQ        
#   hwdata                 integral                 32    'h0        
#   hrdata                 integral                 32    'h16aa0000 
#   hready                 integral                 1     'h0X       
#   hresp                  integral                 1     'h0        
# -------------------------------------------------------------------
# 
# UVM_INFO .\TB\sv\ahb_master_monitor.sv(74) @ 205: uvm_test_top.tb.env.master_agent.monitor [ahb_master_monitor] Packet Collected :
# ---------------------------------------------------------------------
# Name                      Type                      Size  Value      
# ---------------------------------------------------------------------
# ahb_master_sequence_item  ahb_master_sequence_item  -     @889       
#   i_addr                  integral                  32    'h0        
#   i_data                  integral                  32    'h94c516b0 
#   i_burst_type            burst_t                   3     INCR8      
#   i_data_size             hsize_t                   3     HSIZE_HWORD
#   haddr                   integral                  32    'h7da      
#   i_write                 integral                  1     'h0        
#   i_wrap_en               integral                  1     'h0X       
#   i_busy                  integral                  1     'h0X       
# ---------------------------------------------------------------------
# 
# [COVER] OKAY COMPLETE observed
# UVM_INFO .\TB\sv\ahb_master_monitor.sv(74) @ 215: uvm_test_top.tb.env.master_agent.monitor [ahb_master_monitor] Packet Collected :
# ---------------------------------------------------------------------
# Name                      Type                      Size  Value      
# ---------------------------------------------------------------------
# ahb_master_sequence_item  ahb_master_sequence_item  -     @913       
#   i_addr                  integral                  32    'h0        
#   i_data                  integral                  32    'h94c516b0 
#   i_burst_type            burst_t                   3     INCR8      
#   i_data_size             hsize_t                   3     HSIZE_HWORD
#   haddr                   integral                  32    'h7dc      
#   i_write                 integral                  1     'h0        
#   i_wrap_en               integral                  1     'h0X       
#   i_busy                  integral                  1     'h0X       
# ---------------------------------------------------------------------
# 
# UVM_INFO .\TB\sv\ahb_slave_monitor.sv(84) @ 215: uvm_test_top.tb.env.slave_agent.monitor [ahb_slave_monitor] Packet Collected :
# -------------------------------------------------------------------
# Name                     Type                     Size  Value      
# -------------------------------------------------------------------
# ahb_slave_sequence_item  ahb_slave_sequence_item  -     @905       
#   haddr                  integral                 32    'h7dc      
#   hwrite                 integral                 1     'h0        
#   hburst                 burst_t                  3     INCR8      
#   hsize                  hsize_t                  3     HSIZE_HWORD
#   htrans                 htrans_t                 2     SEQ        
#   hwdata                 integral                 32    'h0        
#   hrdata                 integral                 32    'h16ab0000 
#   hready                 integral                 1     'h0X       
#   hresp                  integral                 1     'h0        
# -------------------------------------------------------------------
# 
# [COVER] OKAY COMPLETE observed
# UVM_INFO .\TB\sv\ahb_slave_monitor.sv(84) @ 225: uvm_test_top.tb.env.slave_agent.monitor [ahb_slave_monitor] Packet Collected :
# -------------------------------------------------------------------
# Name                     Type                     Size  Value      
# -------------------------------------------------------------------
# ahb_slave_sequence_item  ahb_slave_sequence_item  -     @929       
#   haddr                  integral                 32    'h7de      
#   hwrite                 integral                 1     'h0        
#   hburst                 burst_t                  3     INCR8      
#   hsize                  hsize_t                  3     HSIZE_HWORD
#   htrans                 htrans_t                 2     SEQ        
#   hwdata                 integral                 32    'h0        
#   hrdata                 integral                 32    'h16ac0000 
#   hready                 integral                 1     'h0X       
#   hresp                  integral                 1     'h0        
# -------------------------------------------------------------------
# 
# UVM_INFO .\TB\sv\ahb_master_monitor.sv(74) @ 225: uvm_test_top.tb.env.master_agent.monitor [ahb_master_monitor] Packet Collected :
# ---------------------------------------------------------------------
# Name                      Type                      Size  Value      
# ---------------------------------------------------------------------
# ahb_master_sequence_item  ahb_master_sequence_item  -     @921       
#   i_addr                  integral                  32    'h0        
#   i_data                  integral                  32    'h94c516b0 
#   i_burst_type            burst_t                   3     INCR8      
#   i_data_size             hsize_t                   3     HSIZE_HWORD
#   haddr                   integral                  32    'h7de      
#   i_write                 integral                  1     'h0        
#   i_wrap_en               integral                  1     'h0X       
#   i_busy                  integral                  1     'h0X       
# ---------------------------------------------------------------------
# 
# [COVER] OKAY COMPLETE observed
# UVM_INFO .\TB\sv\ahb_master_monitor.sv(74) @ 235: uvm_test_top.tb.env.master_agent.monitor [ahb_master_monitor] Packet Collected :
# ---------------------------------------------------------------------
# Name                      Type                      Size  Value      
# ---------------------------------------------------------------------
# ahb_master_sequence_item  ahb_master_sequence_item  -     @945       
#   i_addr                  integral                  32    'h0        
#   i_data                  integral                  32    'h94c516b0 
#   i_burst_type            burst_t                   3     INCR8      
#   i_data_size             hsize_t                   3     HSIZE_HWORD
#   haddr                   integral                  32    'h7e0      
#   i_write                 integral                  1     'h0        
#   i_wrap_en               integral                  1     'h0X       
#   i_busy                  integral                  1     'h0X       
# ---------------------------------------------------------------------
# 
# UVM_INFO .\TB\sv\ahb_slave_monitor.sv(84) @ 235: uvm_test_top.tb.env.slave_agent.monitor [ahb_slave_monitor] Packet Collected :
# -------------------------------------------------------------------
# Name                     Type                     Size  Value      
# -------------------------------------------------------------------
# ahb_slave_sequence_item  ahb_slave_sequence_item  -     @937       
#   haddr                  integral                 32    'h7e0      
#   hwrite                 integral                 1     'h0        
#   hburst                 burst_t                  3     INCR8      
#   hsize                  hsize_t                  3     HSIZE_HWORD
#   htrans                 htrans_t                 2     SEQ        
#   hwdata                 integral                 32    'h0        
#   hrdata                 integral                 32    'h16ad0000 
#   hready                 integral                 1     'h0X       
#   hresp                  integral                 1     'h0        
# -------------------------------------------------------------------
# 
# [COVER] OKAY COMPLETE observed
# UVM_INFO .\TB\sv\ahb_slave_monitor.sv(84) @ 245: uvm_test_top.tb.env.slave_agent.monitor [ahb_slave_monitor] Packet Collected :
# -------------------------------------------------------------------
# Name                     Type                     Size  Value      
# -------------------------------------------------------------------
# ahb_slave_sequence_item  ahb_slave_sequence_item  -     @961       
#   haddr                  integral                 32    'h7e2      
#   hwrite                 integral                 1     'h0        
#   hburst                 burst_t                  3     INCR8      
#   hsize                  hsize_t                  3     HSIZE_HWORD
#   htrans                 htrans_t                 2     SEQ        
#   hwdata                 integral                 32    'h0        
#   hrdata                 integral                 32    'h16ae0000 
#   hready                 integral                 1     'h0X       
#   hresp                  integral                 1     'h0        
# -------------------------------------------------------------------
# 
# UVM_INFO .\TB\sv\ahb_master_monitor.sv(74) @ 245: uvm_test_top.tb.env.master_agent.monitor [ahb_master_monitor] Packet Collected :
# ---------------------------------------------------------------------
# Name                      Type                      Size  Value      
# ---------------------------------------------------------------------
# ahb_master_sequence_item  ahb_master_sequence_item  -     @953       
#   i_addr                  integral                  32    'h0        
#   i_data                  integral                  32    'h94c516b0 
#   i_burst_type            burst_t                   3     INCR8      
#   i_data_size             hsize_t                   3     HSIZE_HWORD
#   haddr                   integral                  32    'h7e2      
#   i_write                 integral                  1     'h0        
#   i_wrap_en               integral                  1     'h0X       
#   i_busy                  integral                  1     'h0X       
# ---------------------------------------------------------------------
# 
# [COVER] OKAY COMPLETE observed
# UVM_INFO .\TB\sv\ahb_master_monitor.sv(74) @ 255: uvm_test_top.tb.env.master_agent.monitor [ahb_master_monitor] Packet Collected :
# ---------------------------------------------------------------------
# Name                      Type                      Size  Value      
# ---------------------------------------------------------------------
# ahb_master_sequence_item  ahb_master_sequence_item  -     @977       
#   i_addr                  integral                  32    'h0        
#   i_data                  integral                  32    'h94c516b0 
#   i_burst_type            burst_t                   3     INCR8      
#   i_data_size             hsize_t                   3     HSIZE_HWORD
#   haddr                   integral                  32    'h7e4      
#   i_write                 integral                  1     'h0        
#   i_wrap_en               integral                  1     'h0X       
#   i_busy                  integral                  1     'h0X       
# ---------------------------------------------------------------------
# 
# UVM_INFO .\TB\sv\ahb_slave_monitor.sv(84) @ 255: uvm_test_top.tb.env.slave_agent.monitor [ahb_slave_monitor] Packet Collected :
# -------------------------------------------------------------------
# Name                     Type                     Size  Value      
# -------------------------------------------------------------------
# ahb_slave_sequence_item  ahb_slave_sequence_item  -     @969       
#   haddr                  integral                 32    'h7e4      
#   hwrite                 integral                 1     'h0        
#   hburst                 burst_t                  3     INCR8      
#   hsize                  hsize_t                  3     HSIZE_HWORD
#   htrans                 htrans_t                 2     SEQ        
#   hwdata                 integral                 32    'h0        
#   hrdata                 integral                 32    'h16af0000 
#   hready                 integral                 1     'h0X       
#   hresp                  integral                 1     'h0        
# -------------------------------------------------------------------
# 
# [COVER] OKAY COMPLETE observed
# UVM_INFO .\TB\sv\ahb_slave_monitor.sv(84) @ 265: uvm_test_top.tb.env.slave_agent.monitor [ahb_slave_monitor] Packet Collected :
# -------------------------------------------------------------------
# Name                     Type                     Size  Value      
# -------------------------------------------------------------------
# ahb_slave_sequence_item  ahb_slave_sequence_item  -     @993       
#   haddr                  integral                 32    'h7e6      
#   hwrite                 integral                 1     'h0        
#   hburst                 burst_t                  3     INCR8      
#   hsize                  hsize_t                  3     HSIZE_HWORD
#   htrans                 htrans_t                 2     SEQ        
#   hwdata                 integral                 32    'h0        
#   hrdata                 integral                 32    'h16b00000 
#   hready                 integral                 1     'h0X       
#   hresp                  integral                 1     'h0        
# -------------------------------------------------------------------
# 
# UVM_INFO .\TB\sv\ahb_master_monitor.sv(74) @ 265: uvm_test_top.tb.env.master_agent.monitor [ahb_master_monitor] Packet Collected :
# ---------------------------------------------------------------------
# Name                      Type                      Size  Value      
# ---------------------------------------------------------------------
# ahb_master_sequence_item  ahb_master_sequence_item  -     @985       
#   i_addr                  integral                  32    'h0        
#   i_data                  integral                  32    'h94c516b0 
#   i_burst_type            burst_t                   3     INCR8      
#   i_data_size             hsize_t                   3     HSIZE_HWORD
#   haddr                   integral                  32    'h7e6      
#   i_write                 integral                  1     'h0        
#   i_wrap_en               integral                  1     'h0X       
#   i_busy                  integral                  1     'h0X       
# ---------------------------------------------------------------------
# 
# UVM_INFO .\TB\sv\ahb_master_driver.sv(50) @ 265: uvm_test_top.tb.env.master_agent.driver [ahb_master_driver] Sending Packet :
# ----------------------------------------------------------------------------------------------------------------------------------------
# Name                           Type                      Size  Value                                                                    
# ----------------------------------------------------------------------------------------------------------------------------------------
# req                            ahb_master_sequence_item  -     @1015                                                                    
#   i_addr                       integral                  32    'h4f0                                                                    
#   i_data                       integral                  32    'h1e15a712                                                               
#   i_burst_type                 burst_t                   3     INCR8                                                                    
#   i_data_size                  hsize_t                   3     HSIZE_WORD                                                               
#   haddr                        integral                  32    'h0xxxxxxxx                                                              
#   i_write                      integral                  1     'h0X                                                                     
#   i_wrap_en                    integral                  1     'h0X                                                                     
#   i_busy                       integral                  1     'h0X                                                                     
#   begin_time                   time                      64    265                                                                      
#   depth                        int                       32    'd2                                                                      
#   parent sequence (name)       string                    30    ahb_master_random_30_sequences                                           
#   parent sequence (full name)  string                    73    uvm_test_top.tb.env.master_agent.sequencer.ahb_master_random_30_sequences
#   sequencer                    string                    42    uvm_test_top.tb.env.master_agent.sequencer                               
# ----------------------------------------------------------------------------------------------------------------------------------------
# 
# [COVER] OKAY COMPLETE observed
# [COVER] OKAY COMPLETE observed
# [COVER] OKAY COMPLETE observed
# [COVER] OKAY COMPLETE observed
# [COVER] OKAY COMPLETE observed
# Slave First time Sample
# UVM_INFO .\TB\sv\ahb_slave_monitor.sv(84) @ 315: uvm_test_top.tb.env.slave_agent.monitor [ahb_slave_monitor] Packet Collected :
# ------------------------------------------------------------------
# Name                     Type                     Size  Value     
# ------------------------------------------------------------------
# ahb_slave_sequence_item  ahb_slave_sequence_item  -     @1002     
#   haddr                  integral                 32    'h4f0     
#   hwrite                 integral                 1     'h1       
#   hburst                 burst_t                  3     INCR8     
#   hsize                  hsize_t                  3     HSIZE_WORD
#   htrans                 htrans_t                 2     NONSEQ    
#   hwdata                 integral                 32    'h1e15a712
#   hrdata                 integral                 32    'h0       
#   hready                 integral                 1     'h0X      
#   hresp                  integral                 1     'h0       
# ------------------------------------------------------------------
# 
# Master First time Sample
# UVM_INFO .\TB\sv\ahb_master_monitor.sv(74) @ 315: uvm_test_top.tb.env.master_agent.monitor [ahb_master_monitor] Packet Collected :
# --------------------------------------------------------------------
# Name                      Type                      Size  Value     
# --------------------------------------------------------------------
# ahb_master_sequence_item  ahb_master_sequence_item  -     @1010     
#   i_addr                  integral                  32    'h0       
#   i_data                  integral                  32    'h1e15a712
#   i_burst_type            burst_t                   3     INCR8     
#   i_data_size             hsize_t                   3     HSIZE_WORD
#   haddr                   integral                  32    'h4f0     
#   i_write                 integral                  1     'h1       
#   i_wrap_en               integral                  1     'h0X      
#   i_busy                  integral                  1     'h0X      
# --------------------------------------------------------------------
# 
# [COVER] OKAY COMPLETE observed
# UVM_INFO .\TB\sv\ahb_master_monitor.sv(74) @ 325: uvm_test_top.tb.env.master_agent.monitor [ahb_master_monitor] Packet Collected :
# --------------------------------------------------------------------
# Name                      Type                      Size  Value     
# --------------------------------------------------------------------
# ahb_master_sequence_item  ahb_master_sequence_item  -     @1031     
#   i_addr                  integral                  32    'h0       
#   i_data                  integral                  32    'h1e15a713
#   i_burst_type            burst_t                   3     INCR8     
#   i_data_size             hsize_t                   3     HSIZE_WORD
#   haddr                   integral                  32    'h4f4     
#   i_write                 integral                  1     'h1       
#   i_wrap_en               integral                  1     'h0X      
#   i_busy                  integral                  1     'h0X      
# --------------------------------------------------------------------
# 
# UVM_INFO .\TB\sv\ahb_slave_monitor.sv(84) @ 325: uvm_test_top.tb.env.slave_agent.monitor [ahb_slave_monitor] Packet Collected :
# ------------------------------------------------------------------
# Name                     Type                     Size  Value     
# ------------------------------------------------------------------
# ahb_slave_sequence_item  ahb_slave_sequence_item  -     @1023     
#   haddr                  integral                 32    'h4f4     
#   hwrite                 integral                 1     'h1       
#   hburst                 burst_t                  3     INCR8     
#   hsize                  hsize_t                  3     HSIZE_WORD
#   htrans                 htrans_t                 2     SEQ       
#   hwdata                 integral                 32    'h1e15a713
#   hrdata                 integral                 32    'h0       
#   hready                 integral                 1     'h0X      
#   hresp                  integral                 1     'h0       
# ------------------------------------------------------------------
# 
# [COVER] OKAY COMPLETE observed
# UVM_INFO .\TB\sv\ahb_slave_monitor.sv(84) @ 335: uvm_test_top.tb.env.slave_agent.monitor [ahb_slave_monitor] Packet Collected :
# ------------------------------------------------------------------
# Name                     Type                     Size  Value     
# ------------------------------------------------------------------
# ahb_slave_sequence_item  ahb_slave_sequence_item  -     @1047     
#   haddr                  integral                 32    'h4f8     
#   hwrite                 integral                 1     'h1       
#   hburst                 burst_t                  3     INCR8     
#   hsize                  hsize_t                  3     HSIZE_WORD
#   htrans                 htrans_t                 2     SEQ       
#   hwdata                 integral                 32    'h1e15a714
#   hrdata                 integral                 32    'h0       
#   hready                 integral                 1     'h0X      
#   hresp                  integral                 1     'h0       
# ------------------------------------------------------------------
# 
# UVM_INFO .\TB\sv\ahb_master_monitor.sv(74) @ 335: uvm_test_top.tb.env.master_agent.monitor [ahb_master_monitor] Packet Collected :
# --------------------------------------------------------------------
# Name                      Type                      Size  Value     
# --------------------------------------------------------------------
# ahb_master_sequence_item  ahb_master_sequence_item  -     @1039     
#   i_addr                  integral                  32    'h0       
#   i_data                  integral                  32    'h1e15a714
#   i_burst_type            burst_t                   3     INCR8     
#   i_data_size             hsize_t                   3     HSIZE_WORD
#   haddr                   integral                  32    'h4f8     
#   i_write                 integral                  1     'h1       
#   i_wrap_en               integral                  1     'h0X      
#   i_busy                  integral                  1     'h0X      
# --------------------------------------------------------------------
# 
# [COVER] OKAY COMPLETE observed
# UVM_INFO .\TB\sv\ahb_master_monitor.sv(74) @ 345: uvm_test_top.tb.env.master_agent.monitor [ahb_master_monitor] Packet Collected :
# --------------------------------------------------------------------
# Name                      Type                      Size  Value     
# --------------------------------------------------------------------
# ahb_master_sequence_item  ahb_master_sequence_item  -     @1063     
#   i_addr                  integral                  32    'h0       
#   i_data                  integral                  32    'h1e15a715
#   i_burst_type            burst_t                   3     INCR8     
#   i_data_size             hsize_t                   3     HSIZE_WORD
#   haddr                   integral                  32    'h4fc     
#   i_write                 integral                  1     'h1       
#   i_wrap_en               integral                  1     'h0X      
#   i_busy                  integral                  1     'h0X      
# --------------------------------------------------------------------
# 
# UVM_INFO .\TB\sv\ahb_slave_monitor.sv(84) @ 345: uvm_test_top.tb.env.slave_agent.monitor [ahb_slave_monitor] Packet Collected :
# ------------------------------------------------------------------
# Name                     Type                     Size  Value     
# ------------------------------------------------------------------
# ahb_slave_sequence_item  ahb_slave_sequence_item  -     @1055     
#   haddr                  integral                 32    'h4fc     
#   hwrite                 integral                 1     'h1       
#   hburst                 burst_t                  3     INCR8     
#   hsize                  hsize_t                  3     HSIZE_WORD
#   htrans                 htrans_t                 2     SEQ       
#   hwdata                 integral                 32    'h1e15a715
#   hrdata                 integral                 32    'h0       
#   hready                 integral                 1     'h0X      
#   hresp                  integral                 1     'h0       
# ------------------------------------------------------------------
# 
# [COVER] OKAY COMPLETE observed
# UVM_INFO .\TB\sv\ahb_slave_monitor.sv(84) @ 355: uvm_test_top.tb.env.slave_agent.monitor [ahb_slave_monitor] Packet Collected :
# ------------------------------------------------------------------
# Name                     Type                     Size  Value     
# ------------------------------------------------------------------
# ahb_slave_sequence_item  ahb_slave_sequence_item  -     @1079     
#   haddr                  integral                 32    'h500     
#   hwrite                 integral                 1     'h1       
#   hburst                 burst_t                  3     INCR8     
#   hsize                  hsize_t                  3     HSIZE_WORD
#   htrans                 htrans_t                 2     SEQ       
#   hwdata                 integral                 32    'h1e15a716
#   hrdata                 integral                 32    'h0       
#   hready                 integral                 1     'h0X      
#   hresp                  integral                 1     'h0       
# ------------------------------------------------------------------
# 
# UVM_INFO .\TB\sv\ahb_master_monitor.sv(74) @ 355: uvm_test_top.tb.env.master_agent.monitor [ahb_master_monitor] Packet Collected :
# --------------------------------------------------------------------
# Name                      Type                      Size  Value     
# --------------------------------------------------------------------
# ahb_master_sequence_item  ahb_master_sequence_item  -     @1071     
#   i_addr                  integral                  32    'h0       
#   i_data                  integral                  32    'h1e15a716
#   i_burst_type            burst_t                   3     INCR8     
#   i_data_size             hsize_t                   3     HSIZE_WORD
#   haddr                   integral                  32    'h500     
#   i_write                 integral                  1     'h1       
#   i_wrap_en               integral                  1     'h0X      
#   i_busy                  integral                  1     'h0X      
# --------------------------------------------------------------------
# 
# [COVER] OKAY COMPLETE observed
# UVM_INFO .\TB\sv\ahb_master_monitor.sv(74) @ 365: uvm_test_top.tb.env.master_agent.monitor [ahb_master_monitor] Packet Collected :
# --------------------------------------------------------------------
# Name                      Type                      Size  Value     
# --------------------------------------------------------------------
# ahb_master_sequence_item  ahb_master_sequence_item  -     @1095     
#   i_addr                  integral                  32    'h0       
#   i_data                  integral                  32    'h1e15a717
#   i_burst_type            burst_t                   3     INCR8     
#   i_data_size             hsize_t                   3     HSIZE_WORD
#   haddr                   integral                  32    'h504     
#   i_write                 integral                  1     'h1       
#   i_wrap_en               integral                  1     'h0X      
#   i_busy                  integral                  1     'h0X      
# --------------------------------------------------------------------
# 
# UVM_INFO .\TB\sv\ahb_slave_monitor.sv(84) @ 365: uvm_test_top.tb.env.slave_agent.monitor [ahb_slave_monitor] Packet Collected :
# ------------------------------------------------------------------
# Name                     Type                     Size  Value     
# ------------------------------------------------------------------
# ahb_slave_sequence_item  ahb_slave_sequence_item  -     @1087     
#   haddr                  integral                 32    'h504     
#   hwrite                 integral                 1     'h1       
#   hburst                 burst_t                  3     INCR8     
#   hsize                  hsize_t                  3     HSIZE_WORD
#   htrans                 htrans_t                 2     SEQ       
#   hwdata                 integral                 32    'h1e15a717
#   hrdata                 integral                 32    'h0       
#   hready                 integral                 1     'h0X      
#   hresp                  integral                 1     'h0       
# ------------------------------------------------------------------
# 
# [COVER] OKAY COMPLETE observed
# UVM_INFO .\TB\sv\ahb_slave_monitor.sv(84) @ 375: uvm_test_top.tb.env.slave_agent.monitor [ahb_slave_monitor] Packet Collected :
# ------------------------------------------------------------------
# Name                     Type                     Size  Value     
# ------------------------------------------------------------------
# ahb_slave_sequence_item  ahb_slave_sequence_item  -     @1111     
#   haddr                  integral                 32    'h508     
#   hwrite                 integral                 1     'h1       
#   hburst                 burst_t                  3     INCR8     
#   hsize                  hsize_t                  3     HSIZE_WORD
#   htrans                 htrans_t                 2     SEQ       
#   hwdata                 integral                 32    'h1e15a718
#   hrdata                 integral                 32    'h0       
#   hready                 integral                 1     'h0X      
#   hresp                  integral                 1     'h0       
# ------------------------------------------------------------------
# 
# UVM_INFO .\TB\sv\ahb_master_monitor.sv(74) @ 375: uvm_test_top.tb.env.master_agent.monitor [ahb_master_monitor] Packet Collected :
# --------------------------------------------------------------------
# Name                      Type                      Size  Value     
# --------------------------------------------------------------------
# ahb_master_sequence_item  ahb_master_sequence_item  -     @1103     
#   i_addr                  integral                  32    'h0       
#   i_data                  integral                  32    'h1e15a718
#   i_burst_type            burst_t                   3     INCR8     
#   i_data_size             hsize_t                   3     HSIZE_WORD
#   haddr                   integral                  32    'h508     
#   i_write                 integral                  1     'h1       
#   i_wrap_en               integral                  1     'h0X      
#   i_busy                  integral                  1     'h0X      
# --------------------------------------------------------------------
# 
# [COVER] OKAY COMPLETE observed
# UVM_INFO .\TB\sv\ahb_master_monitor.sv(74) @ 385: uvm_test_top.tb.env.master_agent.monitor [ahb_master_monitor] Packet Collected :
# --------------------------------------------------------------------
# Name                      Type                      Size  Value     
# --------------------------------------------------------------------
# ahb_master_sequence_item  ahb_master_sequence_item  -     @1127     
#   i_addr                  integral                  32    'h0       
#   i_data                  integral                  32    'h1e15a719
#   i_burst_type            burst_t                   3     INCR8     
#   i_data_size             hsize_t                   3     HSIZE_WORD
#   haddr                   integral                  32    'h50c     
#   i_write                 integral                  1     'h1       
#   i_wrap_en               integral                  1     'h0X      
#   i_busy                  integral                  1     'h0X      
# --------------------------------------------------------------------
# 
# UVM_INFO .\TB\sv\ahb_slave_monitor.sv(84) @ 385: uvm_test_top.tb.env.slave_agent.monitor [ahb_slave_monitor] Packet Collected :
# ------------------------------------------------------------------
# Name                     Type                     Size  Value     
# ------------------------------------------------------------------
# ahb_slave_sequence_item  ahb_slave_sequence_item  -     @1119     
#   haddr                  integral                 32    'h50c     
#   hwrite                 integral                 1     'h1       
#   hburst                 burst_t                  3     INCR8     
#   hsize                  hsize_t                  3     HSIZE_WORD
#   htrans                 htrans_t                 2     SEQ       
#   hwdata                 integral                 32    'h1e15a719
#   hrdata                 integral                 32    'h0       
#   hready                 integral                 1     'h0X      
#   hresp                  integral                 1     'h0       
# ------------------------------------------------------------------
# 
# [COVER] OKAY COMPLETE observed
# [COVER] OKAY COMPLETE observed
# [COVER] OKAY COMPLETE observed
# [COVER] OKAY COMPLETE observed
# [COVER] OKAY COMPLETE observed
# Master First time Sample
# UVM_INFO .\TB\sv\ahb_master_monitor.sv(74) @ 435: uvm_test_top.tb.env.master_agent.monitor [ahb_master_monitor] Packet Collected :
# --------------------------------------------------------------------
# Name                      Type                      Size  Value     
# --------------------------------------------------------------------
# ahb_master_sequence_item  ahb_master_sequence_item  -     @1135     
#   i_addr                  integral                  32    'h0       
#   i_data                  integral                  32    'h1e15a719
#   i_burst_type            burst_t                   3     INCR8     
#   i_data_size             hsize_t                   3     HSIZE_WORD
#   haddr                   integral                  32    'h4f0     
#   i_write                 integral                  1     'h0       
#   i_wrap_en               integral                  1     'h0X      
#   i_busy                  integral                  1     'h0X      
# --------------------------------------------------------------------
# 
# Slave First time Sample
# UVM_INFO .\TB\sv\ahb_slave_monitor.sv(84) @ 435: uvm_test_top.tb.env.slave_agent.monitor [ahb_slave_monitor] Packet Collected :
# ------------------------------------------------------------------
# Name                     Type                     Size  Value     
# ------------------------------------------------------------------
# ahb_slave_sequence_item  ahb_slave_sequence_item  -     @1143     
#   haddr                  integral                 32    'h4f0     
#   hwrite                 integral                 1     'h0       
#   hburst                 burst_t                  3     INCR8     
#   hsize                  hsize_t                  3     HSIZE_WORD
#   htrans                 htrans_t                 2     NONSEQ    
#   hwdata                 integral                 32    'h0       
#   hrdata                 integral                 32    'h1e15a712
#   hready                 integral                 1     'h0X      
#   hresp                  integral                 1     'h0       
# ------------------------------------------------------------------
# 
# [COVER] OKAY COMPLETE observed
# UVM_INFO .\TB\sv\ahb_slave_monitor.sv(84) @ 445: uvm_test_top.tb.env.slave_agent.monitor [ahb_slave_monitor] Packet Collected :
# ------------------------------------------------------------------
# Name                     Type                     Size  Value     
# ------------------------------------------------------------------
# ahb_slave_sequence_item  ahb_slave_sequence_item  -     @1159     
#   haddr                  integral                 32    'h4f4     
#   hwrite                 integral                 1     'h0       
#   hburst                 burst_t                  3     INCR8     
#   hsize                  hsize_t                  3     HSIZE_WORD
#   htrans                 htrans_t                 2     SEQ       
#   hwdata                 integral                 32    'h0       
#   hrdata                 integral                 32    'h1e15a713
#   hready                 integral                 1     'h0X      
#   hresp                  integral                 1     'h0       
# ------------------------------------------------------------------
# 
# UVM_INFO .\TB\sv\ahb_master_monitor.sv(74) @ 445: uvm_test_top.tb.env.master_agent.monitor [ahb_master_monitor] Packet Collected :
# --------------------------------------------------------------------
# Name                      Type                      Size  Value     
# --------------------------------------------------------------------
# ahb_master_sequence_item  ahb_master_sequence_item  -     @1151     
#   i_addr                  integral                  32    'h0       
#   i_data                  integral                  32    'h1e15a719
#   i_burst_type            burst_t                   3     INCR8     
#   i_data_size             hsize_t                   3     HSIZE_WORD
#   haddr                   integral                  32    'h4f4     
#   i_write                 integral                  1     'h0       
#   i_wrap_en               integral                  1     'h0X      
#   i_busy                  integral                  1     'h0X      
# --------------------------------------------------------------------
# 
# [COVER] OKAY COMPLETE observed
# UVM_INFO .\TB\sv\ahb_master_monitor.sv(74) @ 455: uvm_test_top.tb.env.master_agent.monitor [ahb_master_monitor] Packet Collected :
# --------------------------------------------------------------------
# Name                      Type                      Size  Value     
# --------------------------------------------------------------------
# ahb_master_sequence_item  ahb_master_sequence_item  -     @1175     
#   i_addr                  integral                  32    'h0       
#   i_data                  integral                  32    'h1e15a719
#   i_burst_type            burst_t                   3     INCR8     
#   i_data_size             hsize_t                   3     HSIZE_WORD
#   haddr                   integral                  32    'h4f8     
#   i_write                 integral                  1     'h0       
#   i_wrap_en               integral                  1     'h0X      
#   i_busy                  integral                  1     'h0X      
# --------------------------------------------------------------------
# 
# UVM_INFO .\TB\sv\ahb_slave_monitor.sv(84) @ 455: uvm_test_top.tb.env.slave_agent.monitor [ahb_slave_monitor] Packet Collected :
# ------------------------------------------------------------------
# Name                     Type                     Size  Value     
# ------------------------------------------------------------------
# ahb_slave_sequence_item  ahb_slave_sequence_item  -     @1167     
#   haddr                  integral                 32    'h4f8     
#   hwrite                 integral                 1     'h0       
#   hburst                 burst_t                  3     INCR8     
#   hsize                  hsize_t                  3     HSIZE_WORD
#   htrans                 htrans_t                 2     SEQ       
#   hwdata                 integral                 32    'h0       
#   hrdata                 integral                 32    'h1e15a714
#   hready                 integral                 1     'h0X      
#   hresp                  integral                 1     'h0       
# ------------------------------------------------------------------
# 
# [COVER] OKAY COMPLETE observed
# UVM_INFO .\TB\sv\ahb_slave_monitor.sv(84) @ 465: uvm_test_top.tb.env.slave_agent.monitor [ahb_slave_monitor] Packet Collected :
# ------------------------------------------------------------------
# Name                     Type                     Size  Value     
# ------------------------------------------------------------------
# ahb_slave_sequence_item  ahb_slave_sequence_item  -     @1191     
#   haddr                  integral                 32    'h4fc     
#   hwrite                 integral                 1     'h0       
#   hburst                 burst_t                  3     INCR8     
#   hsize                  hsize_t                  3     HSIZE_WORD
#   htrans                 htrans_t                 2     SEQ       
#   hwdata                 integral                 32    'h0       
#   hrdata                 integral                 32    'h1e15a715
#   hready                 integral                 1     'h0X      
#   hresp                  integral                 1     'h0       
# ------------------------------------------------------------------
# 
# UVM_INFO .\TB\sv\ahb_master_monitor.sv(74) @ 465: uvm_test_top.tb.env.master_agent.monitor [ahb_master_monitor] Packet Collected :
# --------------------------------------------------------------------
# Name                      Type                      Size  Value     
# --------------------------------------------------------------------
# ahb_master_sequence_item  ahb_master_sequence_item  -     @1183     
#   i_addr                  integral                  32    'h0       
#   i_data                  integral                  32    'h1e15a719
#   i_burst_type            burst_t                   3     INCR8     
#   i_data_size             hsize_t                   3     HSIZE_WORD
#   haddr                   integral                  32    'h4fc     
#   i_write                 integral                  1     'h0       
#   i_wrap_en               integral                  1     'h0X      
#   i_busy                  integral                  1     'h0X      
# --------------------------------------------------------------------
# 
# [COVER] OKAY COMPLETE observed
# UVM_INFO .\TB\sv\ahb_master_monitor.sv(74) @ 475: uvm_test_top.tb.env.master_agent.monitor [ahb_master_monitor] Packet Collected :
# --------------------------------------------------------------------
# Name                      Type                      Size  Value     
# --------------------------------------------------------------------
# ahb_master_sequence_item  ahb_master_sequence_item  -     @1207     
#   i_addr                  integral                  32    'h0       
#   i_data                  integral                  32    'h1e15a719
#   i_burst_type            burst_t                   3     INCR8     
#   i_data_size             hsize_t                   3     HSIZE_WORD
#   haddr                   integral                  32    'h500     
#   i_write                 integral                  1     'h0       
#   i_wrap_en               integral                  1     'h0X      
#   i_busy                  integral                  1     'h0X      
# --------------------------------------------------------------------
# 
# UVM_INFO .\TB\sv\ahb_slave_monitor.sv(84) @ 475: uvm_test_top.tb.env.slave_agent.monitor [ahb_slave_monitor] Packet Collected :
# ------------------------------------------------------------------
# Name                     Type                     Size  Value     
# ------------------------------------------------------------------
# ahb_slave_sequence_item  ahb_slave_sequence_item  -     @1199     
#   haddr                  integral                 32    'h500     
#   hwrite                 integral                 1     'h0       
#   hburst                 burst_t                  3     INCR8     
#   hsize                  hsize_t                  3     HSIZE_WORD
#   htrans                 htrans_t                 2     SEQ       
#   hwdata                 integral                 32    'h0       
#   hrdata                 integral                 32    'h1e15a716
#   hready                 integral                 1     'h0X      
#   hresp                  integral                 1     'h0       
# ------------------------------------------------------------------
# 
# [COVER] OKAY COMPLETE observed
# UVM_INFO .\TB\sv\ahb_slave_monitor.sv(84) @ 485: uvm_test_top.tb.env.slave_agent.monitor [ahb_slave_monitor] Packet Collected :
# ------------------------------------------------------------------
# Name                     Type                     Size  Value     
# ------------------------------------------------------------------
# ahb_slave_sequence_item  ahb_slave_sequence_item  -     @1223     
#   haddr                  integral                 32    'h504     
#   hwrite                 integral                 1     'h0       
#   hburst                 burst_t                  3     INCR8     
#   hsize                  hsize_t                  3     HSIZE_WORD
#   htrans                 htrans_t                 2     SEQ       
#   hwdata                 integral                 32    'h0       
#   hrdata                 integral                 32    'h1e15a717
#   hready                 integral                 1     'h0X      
#   hresp                  integral                 1     'h0       
# ------------------------------------------------------------------
# 
# UVM_INFO .\TB\sv\ahb_master_monitor.sv(74) @ 485: uvm_test_top.tb.env.master_agent.monitor [ahb_master_monitor] Packet Collected :
# --------------------------------------------------------------------
# Name                      Type                      Size  Value     
# --------------------------------------------------------------------
# ahb_master_sequence_item  ahb_master_sequence_item  -     @1215     
#   i_addr                  integral                  32    'h0       
#   i_data                  integral                  32    'h1e15a719
#   i_burst_type            burst_t                   3     INCR8     
#   i_data_size             hsize_t                   3     HSIZE_WORD
#   haddr                   integral                  32    'h504     
#   i_write                 integral                  1     'h0       
#   i_wrap_en               integral                  1     'h0X      
#   i_busy                  integral                  1     'h0X      
# --------------------------------------------------------------------
# 
# [COVER] OKAY COMPLETE observed
# UVM_INFO .\TB\sv\ahb_master_monitor.sv(74) @ 495: uvm_test_top.tb.env.master_agent.monitor [ahb_master_monitor] Packet Collected :
# --------------------------------------------------------------------
# Name                      Type                      Size  Value     
# --------------------------------------------------------------------
# ahb_master_sequence_item  ahb_master_sequence_item  -     @1239     
#   i_addr                  integral                  32    'h0       
#   i_data                  integral                  32    'h1e15a719
#   i_burst_type            burst_t                   3     INCR8     
#   i_data_size             hsize_t                   3     HSIZE_WORD
#   haddr                   integral                  32    'h508     
#   i_write                 integral                  1     'h0       
#   i_wrap_en               integral                  1     'h0X      
#   i_busy                  integral                  1     'h0X      
# --------------------------------------------------------------------
# 
# UVM_INFO .\TB\sv\ahb_slave_monitor.sv(84) @ 495: uvm_test_top.tb.env.slave_agent.monitor [ahb_slave_monitor] Packet Collected :
# ------------------------------------------------------------------
# Name                     Type                     Size  Value     
# ------------------------------------------------------------------
# ahb_slave_sequence_item  ahb_slave_sequence_item  -     @1231     
#   haddr                  integral                 32    'h508     
#   hwrite                 integral                 1     'h0       
#   hburst                 burst_t                  3     INCR8     
#   hsize                  hsize_t                  3     HSIZE_WORD
#   htrans                 htrans_t                 2     SEQ       
#   hwdata                 integral                 32    'h0       
#   hrdata                 integral                 32    'h1e15a718
#   hready                 integral                 1     'h0X      
#   hresp                  integral                 1     'h0       
# ------------------------------------------------------------------
# 
# [COVER] OKAY COMPLETE observed
# UVM_INFO .\TB\sv\ahb_slave_monitor.sv(84) @ 505: uvm_test_top.tb.env.slave_agent.monitor [ahb_slave_monitor] Packet Collected :
# ------------------------------------------------------------------
# Name                     Type                     Size  Value     
# ------------------------------------------------------------------
# ahb_slave_sequence_item  ahb_slave_sequence_item  -     @1255     
#   haddr                  integral                 32    'h50c     
#   hwrite                 integral                 1     'h0       
#   hburst                 burst_t                  3     INCR8     
#   hsize                  hsize_t                  3     HSIZE_WORD
#   htrans                 htrans_t                 2     SEQ       
#   hwdata                 integral                 32    'h0       
#   hrdata                 integral                 32    'h1e15a719
#   hready                 integral                 1     'h0X      
#   hresp                  integral                 1     'h0       
# ------------------------------------------------------------------
# 
# UVM_INFO .\TB\sv\ahb_master_monitor.sv(74) @ 505: uvm_test_top.tb.env.master_agent.monitor [ahb_master_monitor] Packet Collected :
# --------------------------------------------------------------------
# Name                      Type                      Size  Value     
# --------------------------------------------------------------------
# ahb_master_sequence_item  ahb_master_sequence_item  -     @1247     
#   i_addr                  integral                  32    'h0       
#   i_data                  integral                  32    'h1e15a719
#   i_burst_type            burst_t                   3     INCR8     
#   i_data_size             hsize_t                   3     HSIZE_WORD
#   haddr                   integral                  32    'h50c     
#   i_write                 integral                  1     'h0       
#   i_wrap_en               integral                  1     'h0X      
#   i_busy                  integral                  1     'h0X      
# --------------------------------------------------------------------
# 
# UVM_INFO .\TB\sv\ahb_master_driver.sv(50) @ 505: uvm_test_top.tb.env.master_agent.driver [ahb_master_driver] Sending Packet :
# ----------------------------------------------------------------------------------------------------------------------------------------
# Name                           Type                      Size  Value                                                                    
# ----------------------------------------------------------------------------------------------------------------------------------------
# req                            ahb_master_sequence_item  -     @1275                                                                    
#   i_addr                       integral                  32    'h698                                                                    
#   i_data                       integral                  32    'h3e46ec1e                                                               
#   i_burst_type                 burst_t                   3     WRAP16                                                                   
#   i_data_size                  hsize_t                   3     HSIZE_HWORD                                                              
#   haddr                        integral                  32    'h0xxxxxxxx                                                              
#   i_write                      integral                  1     'h0X                                                                     
#   i_wrap_en                    integral                  1     'h0X                                                                     
#   i_busy                       integral                  1     'h0X                                                                     
#   begin_time                   time                      64    505                                                                      
#   depth                        int                       32    'd2                                                                      
#   parent sequence (name)       string                    30    ahb_master_random_30_sequences                                           
#   parent sequence (full name)  string                    73    uvm_test_top.tb.env.master_agent.sequencer.ahb_master_random_30_sequences
#   sequencer                    string                    42    uvm_test_top.tb.env.master_agent.sequencer                               
# ----------------------------------------------------------------------------------------------------------------------------------------
# 
# [COVER] OKAY COMPLETE observed
# [COVER] OKAY COMPLETE observed
# [COVER] OKAY COMPLETE observed
# [COVER] OKAY COMPLETE observed
# Slave First time Sample
# UVM_INFO .\TB\sv\ahb_slave_monitor.sv(84) @ 545: uvm_test_top.tb.env.slave_agent.monitor [ahb_slave_monitor] Packet Collected :
# -------------------------------------------------------------------
# Name                     Type                     Size  Value      
# -------------------------------------------------------------------
# ahb_slave_sequence_item  ahb_slave_sequence_item  -     @1263      
#   haddr                  integral                 32    'h698      
#   hwrite                 integral                 1     'h1        
#   hburst                 burst_t                  3     WRAP16     
#   hsize                  hsize_t                  3     HSIZE_HWORD
#   htrans                 htrans_t                 2     NONSEQ     
#   hwdata                 integral                 32    'h3e46ec1e 
#   hrdata                 integral                 32    'h0        
#   hready                 integral                 1     'h0X       
#   hresp                  integral                 1     'h0        
# -------------------------------------------------------------------
# 
# Master First time Sample
# UVM_INFO .\TB\sv\ahb_master_monitor.sv(74) @ 545: uvm_test_top.tb.env.master_agent.monitor [ahb_master_monitor] Packet Collected :
# ---------------------------------------------------------------------
# Name                      Type                      Size  Value      
# ---------------------------------------------------------------------
# ahb_master_sequence_item  ahb_master_sequence_item  -     @1271      
#   i_addr                  integral                  32    'h0        
#   i_data                  integral                  32    'h3e46ec1e 
#   i_burst_type            burst_t                   3     WRAP16     
#   i_data_size             hsize_t                   3     HSIZE_HWORD
#   haddr                   integral                  32    'h698      
#   i_write                 integral                  1     'h1        
#   i_wrap_en               integral                  1     'h0X       
#   i_busy                  integral                  1     'h0X       
# ---------------------------------------------------------------------
# 
# [COVER] OKAY COMPLETE observed
# UVM_INFO .\TB\sv\ahb_master_monitor.sv(74) @ 555: uvm_test_top.tb.env.master_agent.monitor [ahb_master_monitor] Packet Collected :
# ---------------------------------------------------------------------
# Name                      Type                      Size  Value      
# ---------------------------------------------------------------------
# ahb_master_sequence_item  ahb_master_sequence_item  -     @1291      
#   i_addr                  integral                  32    'h0        
#   i_data                  integral                  32    'h3e46ec1f 
#   i_burst_type            burst_t                   3     WRAP16     
#   i_data_size             hsize_t                   3     HSIZE_HWORD
#   haddr                   integral                  32    'h69a      
#   i_write                 integral                  1     'h1        
#   i_wrap_en               integral                  1     'h0X       
#   i_busy                  integral                  1     'h0X       
# ---------------------------------------------------------------------
# 
# UVM_INFO .\TB\sv\ahb_slave_monitor.sv(84) @ 555: uvm_test_top.tb.env.slave_agent.monitor [ahb_slave_monitor] Packet Collected :
# -------------------------------------------------------------------
# Name                     Type                     Size  Value      
# -------------------------------------------------------------------
# ahb_slave_sequence_item  ahb_slave_sequence_item  -     @1283      
#   haddr                  integral                 32    'h69a      
#   hwrite                 integral                 1     'h1        
#   hburst                 burst_t                  3     WRAP16     
#   hsize                  hsize_t                  3     HSIZE_HWORD
#   htrans                 htrans_t                 2     SEQ        
#   hwdata                 integral                 32    'h3e46ec1f 
#   hrdata                 integral                 32    'h0        
#   hready                 integral                 1     'h0X       
#   hresp                  integral                 1     'h0        
# -------------------------------------------------------------------
# 
# [COVER] OKAY COMPLETE observed
# UVM_INFO .\TB\sv\ahb_slave_monitor.sv(84) @ 565: uvm_test_top.tb.env.slave_agent.monitor [ahb_slave_monitor] Packet Collected :
# -------------------------------------------------------------------
# Name                     Type                     Size  Value      
# -------------------------------------------------------------------
# ahb_slave_sequence_item  ahb_slave_sequence_item  -     @1307      
#   haddr                  integral                 32    'h69c      
#   hwrite                 integral                 1     'h1        
#   hburst                 burst_t                  3     WRAP16     
#   hsize                  hsize_t                  3     HSIZE_HWORD
#   htrans                 htrans_t                 2     SEQ        
#   hwdata                 integral                 32    'h3e46ec20 
#   hrdata                 integral                 32    'h0        
#   hready                 integral                 1     'h0X       
#   hresp                  integral                 1     'h0        
# -------------------------------------------------------------------
# 
# UVM_INFO .\TB\sv\ahb_master_monitor.sv(74) @ 565: uvm_test_top.tb.env.master_agent.monitor [ahb_master_monitor] Packet Collected :
# ---------------------------------------------------------------------
# Name                      Type                      Size  Value      
# ---------------------------------------------------------------------
# ahb_master_sequence_item  ahb_master_sequence_item  -     @1299      
#   i_addr                  integral                  32    'h0        
#   i_data                  integral                  32    'h3e46ec20 
#   i_burst_type            burst_t                   3     WRAP16     
#   i_data_size             hsize_t                   3     HSIZE_HWORD
#   haddr                   integral                  32    'h69c      
#   i_write                 integral                  1     'h1        
#   i_wrap_en               integral                  1     'h0X       
#   i_busy                  integral                  1     'h0X       
# ---------------------------------------------------------------------
# 
# [COVER] OKAY COMPLETE observed
# UVM_INFO .\TB\sv\ahb_master_monitor.sv(74) @ 575: uvm_test_top.tb.env.master_agent.monitor [ahb_master_monitor] Packet Collected :
# ---------------------------------------------------------------------
# Name                      Type                      Size  Value      
# ---------------------------------------------------------------------
# ahb_master_sequence_item  ahb_master_sequence_item  -     @1323      
#   i_addr                  integral                  32    'h0        
#   i_data                  integral                  32    'h3e46ec21 
#   i_burst_type            burst_t                   3     WRAP16     
#   i_data_size             hsize_t                   3     HSIZE_HWORD
#   haddr                   integral                  32    'h69e      
#   i_write                 integral                  1     'h1        
#   i_wrap_en               integral                  1     'h0X       
#   i_busy                  integral                  1     'h0X       
# ---------------------------------------------------------------------
# 
# UVM_INFO .\TB\sv\ahb_slave_monitor.sv(84) @ 575: uvm_test_top.tb.env.slave_agent.monitor [ahb_slave_monitor] Packet Collected :
# -------------------------------------------------------------------
# Name                     Type                     Size  Value      
# -------------------------------------------------------------------
# ahb_slave_sequence_item  ahb_slave_sequence_item  -     @1315      
#   haddr                  integral                 32    'h69e      
#   hwrite                 integral                 1     'h1        
#   hburst                 burst_t                  3     WRAP16     
#   hsize                  hsize_t                  3     HSIZE_HWORD
#   htrans                 htrans_t                 2     SEQ        
#   hwdata                 integral                 32    'h3e46ec21 
#   hrdata                 integral                 32    'h0        
#   hready                 integral                 1     'h0X       
