#  log -r /*
#  run -all
# ----------------------------------------------------------------
# UVM-1.1d
# (C) 2007-2013 Mentor Graphics Corporation
# (C) 2007-2013 Cadence Design Systems, Inc.
# (C) 2006-2013 Synopsys, Inc.
# (C) 2011-2013 Cypress Semiconductor Corp.
# ----------------------------------------------------------------
# 
#   ***********       IMPORTANT RELEASE NOTES         ************
# 
#   You are using a version of the UVM library that has been compiled
#   with `UVM_NO_DEPRECATED undefined.
#   See http://www.eda.org/svdb/view.php?id=3313 for more details.
# 
#   You are using a version of the UVM library that has been compiled
#   with `UVM_OBJECT_MUST_HAVE_CONSTRUCTOR undefined.
#   See http://www.eda.org/svdb/view.php?id=3770 for more details.
# 
#       (Specify +UVM_NO_RELNOTES to turn off this notice)
# 
# UVM_INFO C:/questasim64_10.7c/verilog_src/uvm-1.1d/src/base/uvm_root.svh(370) @ 0: reporter [NO_DPI_TSTNAME] UVM_NO_DPI defined--getting UVM_TESTNAME directly, without DPI
# UVM_INFO @ 0: reporter [RNTST] Running test ahb_master_hsize_word_test...
# UVM_INFO .\TB\tb\ahb_tb.sv(18) @ 0: uvm_test_top.tb [ahb_tb] Testbench Build Phase is being executed !
# UVM_INFO .\TB\sv\ahb_master_agent.sv(23) @ 0: uvm_test_top.tb.env.master_agent [CFG] Property is_active exists in config DB
# UVM_INFO .\TB\sv\ahb_master_agent.sv(34) @ 0: uvm_test_top.tb.env.master_agent [ahb_master_agent] AGENT IS ACTIVE !
# UVM_INFO .\TB\sv\ahb_slave_agent.sv(23) @ 0: uvm_test_top.tb.env.slave_agent [CFG] Property is_active exists in config DB
# UVM_INFO .\TB\sv\ahb_master_driver.sv(24) @ 0: uvm_test_top.tb.env.master_agent.driver [ahb_master_driver] Driver is connected with interface
# UVM_INFO .\TB\sv\ahb_master_monitor.sv(26) @ 0: uvm_test_top.tb.env.master_agent.monitor [ahb_master_monitor] Driver is connected with interface
# UVM_INFO .\TB\sv\ahb_slave_monitor.sv(26) @ 0: uvm_test_top.tb.env.slave_agent.monitor [ahb_slave_monitor] Driver is connected with interface
# UVM_INFO .\TB\tb\ahb_test_lib.sv(25) @ 0: uvm_test_top [ahb_master_hsize_word_test] End of Elaboration Phase of Test is being executed!
# UVM_INFO @ 0: reporter [UVMTOP] UVM testbench topology:
# ----------------------------------------------------------------------
# Name                           Type                        Size  Value
# ----------------------------------------------------------------------
# uvm_test_top                   ahb_master_hsize_word_test  -     @452 
#   tb                           ahb_tb                      -     @471 
#     env                        ahb_env                     -     @478 
#       ahb_scb                  ahb_scoreboard              -     @499 
#         master_imp             uvm_analysis_imp_master     -     @506 
#           recording_detail     integral                    32    'd1  
#         slave_imp              uvm_analysis_imp_slave      -     @514 
#           recording_detail     integral                    32    'd1  
#         recording_detail       integral                    32    'd1  
#       master_agent             ahb_master_agent            -     @485 
#         driver                 ahb_master_driver           -     @555 
#           rsp_port             uvm_analysis_port           -     @570 
#             recording_detail   integral                    32    'd1  
#           seq_item_port        uvm_seq_item_pull_port      -     @562 
#             recording_detail   integral                    32    'd1  
#           recording_detail     integral                    32    'd1  
#         monitor                ahb_master_monitor          -     @538 
#           item_collected_port  uvm_analysis_port           -     @545 
#             recording_detail   integral                    32    'd1  
#           recording_detail     integral                    32    'd1  
#         sequencer              ahb_master_sequencer        -     @578 
#           rsp_export           uvm_analysis_export         -     @585 
#             recording_detail   integral                    32    'd1  
#           seq_item_export      uvm_seq_item_pull_imp       -     @679 
#             recording_detail   integral                    32    'd1  
#           recording_detail     integral                    32    'd1  
#           arbitration_queue    array                       0     -    
#           lock_queue           array                       0     -    
#           num_last_reqs        integral                    32    'd1  
#           num_last_rsps        integral                    32    'd1  
#         recording_detail       integral                    32    'd1  
#       slave_agent              ahb_slave_agent             -     @492 
#         monitor                ahb_slave_monitor           -     @693 
#           item_collected_port  uvm_analysis_port           -     @700 
#             recording_detail   integral                    32    'd1  
#           recording_detail     integral                    32    'd1  
#         recording_detail       integral                    32    'd1  
#       slave_cov                func_cov                    -     @522 
#         analysis_imp           uvm_analysis_imp            -     @529 
#           recording_detail     integral                    32    'd1  
#         recording_detail       integral                    32    'd1  
#       recording_detail         integral                    32    'd1  
#     recording_detail           integral                    32    'd1  
# ----------------------------------------------------------------------
# 
# UVM_INFO .\TB\sv\ahb_master_driver.sv(28) @ 0: uvm_test_top.tb.env.master_agent.driver [ahb_master_driver] start of simulation for uvm_test_top.tb.env.master_agent.driver
# UVM_INFO .\TB\sv\ahb_master_monitor.sv(30) @ 0: uvm_test_top.tb.env.master_agent.monitor [ahb_master_monitor] start of simulation for uvm_test_top.tb.env.master_agent.monitor
# UVM_INFO .\TB\sv\ahb_master_agent.sv(48) @ 0: uvm_test_top.tb.env.master_agent [ahb_master_agent] start of simulation for uvm_test_top.tb.env.master_agent
# UVM_INFO .\TB\sv\ahb_slave_monitor.sv(30) @ 0: uvm_test_top.tb.env.slave_agent.monitor [ahb_slave_monitor] start of simulation for uvm_test_top.tb.env.slave_agent.monitor
# UVM_INFO .\TB\sv\ahb_slave_agent.sv(48) @ 0: uvm_test_top.tb.env.slave_agent [ahb_slave_agent] start of simulation for uvm_test_top.tb.env.slave_agent
# UVM_INFO .\TB\sv\ahb_env.sv(34) @ 0: uvm_test_top.tb.env [ahb_env] start of simulation for uvm_test_top.tb.env
# UVM_INFO .\TB\tb\ahb_tb.sv(22) @ 0: uvm_test_top.tb [ahb_tb] start of simulation for uvm_test_top.tb
# UVM_INFO .\TB\tb\ahb_test_lib.sv(34) @ 0: uvm_test_top [ahb_master_hsize_word_test] Run Phase of Test is being executed!
# UVM_INFO .\TB\tb\ahb_test_lib.sv(37) @ 0: uvm_test_top [ahb_master_hsize_word_test] Raise objection in run phase
# UVM_INFO .\TB\tb\ahb_test_lib.sv(39) @ 0: uvm_test_top [ahb_master_hsize_word_test] Drop objection in run phase
# UVM_INFO .\TB\tb\ahb_tb.sv(26) @ 0: uvm_test_top.tb [ahb_tb] Testbench Run Phase is begin executed!
# UVM_INFO C:/questasim64_10.7c/verilog_src/uvm-1.1d/src/seq/uvm_sequencer_base.svh(1390) @ 0: uvm_test_top.tb.env.master_agent.sequencer [PHASESEQ] Starting default sequence 'ahb_master_hsize_word_sequences' for phase 'run'
# UVM_INFO .\TB\sv\ahb_master_driver.sv(32) @ 0: uvm_test_top.tb.env.master_agent.driver [ahb_master_driver] Driver is running
# UVM_INFO .\TB\sv\ahb_master_sequences.sv(28) @ 0: uvm_test_top.tb.env.master_agent.sequencer@@ahb_master_hsize_word_sequences [ahb_master_hsize_word_sequences] raise objection
# UVM_INFO .\TB\sv\ahb_master_sequences.sv(245) @ 0: uvm_test_top.tb.env.master_agent.sequencer@@ahb_master_hsize_word_sequences [ahb_master_hsize_word_sequences] Executing ahb_master_hsize_word_sequences
# UVM_INFO C:/questasim64_10.7c/verilog_src/uvm-1.1d/src/seq/uvm_sequencer_base.svh(1384) @ 0: uvm_test_top.tb.env.master_agent.sequencer [PHASESEQ] No default phase sequence for phase 'pre_reset'
# UVM_INFO C:/questasim64_10.7c/verilog_src/uvm-1.1d/src/seq/uvm_sequencer_base.svh(1384) @ 0: uvm_test_top.tb.env.master_agent.sequencer [PHASESEQ] No default phase sequence for phase 'reset'
# UVM_INFO C:/questasim64_10.7c/verilog_src/uvm-1.1d/src/seq/uvm_sequencer_base.svh(1384) @ 0: uvm_test_top.tb.env.master_agent.sequencer [PHASESEQ] No default phase sequence for phase 'post_reset'
# UVM_INFO C:/questasim64_10.7c/verilog_src/uvm-1.1d/src/seq/uvm_sequencer_base.svh(1384) @ 0: uvm_test_top.tb.env.master_agent.sequencer [PHASESEQ] No default phase sequence for phase 'pre_configure'
# UVM_INFO C:/questasim64_10.7c/verilog_src/uvm-1.1d/src/seq/uvm_sequencer_base.svh(1384) @ 0: uvm_test_top.tb.env.master_agent.sequencer [PHASESEQ] No default phase sequence for phase 'configure'
# UVM_INFO C:/questasim64_10.7c/verilog_src/uvm-1.1d/src/seq/uvm_sequencer_base.svh(1384) @ 0: uvm_test_top.tb.env.master_agent.sequencer [PHASESEQ] No default phase sequence for phase 'post_configure'
# UVM_INFO C:/questasim64_10.7c/verilog_src/uvm-1.1d/src/seq/uvm_sequencer_base.svh(1384) @ 0: uvm_test_top.tb.env.master_agent.sequencer [PHASESEQ] No default phase sequence for phase 'pre_main'
# UVM_INFO C:/questasim64_10.7c/verilog_src/uvm-1.1d/src/seq/uvm_sequencer_base.svh(1384) @ 0: uvm_test_top.tb.env.master_agent.sequencer [PHASESEQ] No default phase sequence for phase 'main'
# UVM_INFO C:/questasim64_10.7c/verilog_src/uvm-1.1d/src/seq/uvm_sequencer_base.svh(1384) @ 0: uvm_test_top.tb.env.master_agent.sequencer [PHASESEQ] No default phase sequence for phase 'post_main'
# UVM_INFO C:/questasim64_10.7c/verilog_src/uvm-1.1d/src/seq/uvm_sequencer_base.svh(1384) @ 0: uvm_test_top.tb.env.master_agent.sequencer [PHASESEQ] No default phase sequence for phase 'pre_shutdown'
# UVM_INFO C:/questasim64_10.7c/verilog_src/uvm-1.1d/src/seq/uvm_sequencer_base.svh(1384) @ 0: uvm_test_top.tb.env.master_agent.sequencer [PHASESEQ] No default phase sequence for phase 'shutdown'
# UVM_INFO C:/questasim64_10.7c/verilog_src/uvm-1.1d/src/seq/uvm_sequencer_base.svh(1384) @ 0: uvm_test_top.tb.env.master_agent.sequencer [PHASESEQ] No default phase sequence for phase 'post_shutdown'
# UVM_INFO .\TB\sv\ahb_slave_monitor.sv(37) @ 25: uvm_test_top.tb.env.slave_agent.monitor [ahb_slave_monitor] Detected Reset Done
# UVM_INFO .\TB\sv\ahb_master_monitor.sv(37) @ 25: uvm_test_top.tb.env.master_agent.monitor [ahb_master_monitor] Detected Reset Done
# UVM_INFO .\TB\sv\ahb_master_driver.sv(37) @ 25: uvm_test_top.tb.env.master_agent.driver [ahb_master_driver] Detected Reset Done
# UVM_INFO .\TB\sv\ahb_master_driver.sv(50) @ 25: uvm_test_top.tb.env.master_agent.driver [ahb_master_driver] Sending Packet :
# -----------------------------------------------------------------------------------------------------------------------------------------
# Name                           Type                      Size  Value                                                                     
# -----------------------------------------------------------------------------------------------------------------------------------------
# req                            ahb_master_sequence_item  -     @720                                                                      
#   i_addr                       integral                  32    'ha26                                                                     
#   i_data                       integral                  32    'h11a4e1b2                                                                
#   i_burst_type                 burst_t                   3     INCR16                                                                    
#   i_data_size                  hsize_t                   3     HSIZE_HWORD                                                               
#   haddr                        integral                  32    'h0xxxxxxxx                                                               
#   i_write                      integral                  1     'h0X                                                                      
#   i_wrap_en                    integral                  1     'h0X                                                                      
#   i_busy                       integral                  1     'h0X                                                                      
#   begin_time                   time                      64    25                                                                        
#   depth                        int                       32    'd2                                                                       
#   parent sequence (name)       string                    31    ahb_master_hsize_word_sequences                                           
#   parent sequence (full name)  string                    74    uvm_test_top.tb.env.master_agent.sequencer.ahb_master_hsize_word_sequences
#   sequencer                    string                    42    uvm_test_top.tb.env.master_agent.sequencer                                
# -----------------------------------------------------------------------------------------------------------------------------------------
# 
# [COVER] OKAY COMPLETE observed
# [COVER] OKAY COMPLETE observed
# [COVER] OKAY COMPLETE observed
# [COVER] OKAY COMPLETE observed
# [COVER] OKAY COMPLETE observed
# Slave First time Sample
# UVM_INFO .\TB\sv\ahb_slave_monitor.sv(84) @ 75: uvm_test_top.tb.env.slave_agent.monitor [ahb_slave_monitor] Packet Collected :
# -------------------------------------------------------------------
# Name                     Type                     Size  Value      
# -------------------------------------------------------------------
# ahb_slave_sequence_item  ahb_slave_sequence_item  -     @748       
#   haddr                  integral                 32    'ha26      
#   hwrite                 integral                 1     'h1        
#   hburst                 burst_t                  3     INCR16     
#   hsize                  hsize_t                  3     HSIZE_HWORD
#   htrans                 htrans_t                 2     NONSEQ     
#   hwdata                 integral                 32    'h11a4e1b2 
#   hrdata                 integral                 32    'h0        
#   hready                 integral                 1     'h0X       
#   hresp                  integral                 1     'h0        
# -------------------------------------------------------------------
# 
# Master First time Sample
# UVM_INFO .\TB\sv\ahb_master_monitor.sv(74) @ 75: uvm_test_top.tb.env.master_agent.monitor [ahb_master_monitor] Packet Collected :
# ---------------------------------------------------------------------
# Name                      Type                      Size  Value      
# ---------------------------------------------------------------------
# ahb_master_sequence_item  ahb_master_sequence_item  -     @752       
#   i_addr                  integral                  32    'h0        
#   i_data                  integral                  32    'h11a4e1b2 
#   i_burst_type            burst_t                   3     INCR16     
#   i_data_size             hsize_t                   3     HSIZE_HWORD
#   haddr                   integral                  32    'ha26      
#   i_write                 integral                  1     'h1        
#   i_wrap_en               integral                  1     'h0X       
#   i_busy                  integral                  1     'h0X       
# ---------------------------------------------------------------------
# 
# [COVER] OKAY COMPLETE observed
# UVM_INFO .\TB\sv\ahb_master_monitor.sv(74) @ 85: uvm_test_top.tb.env.master_agent.monitor [ahb_master_monitor] Packet Collected :
# ---------------------------------------------------------------------
# Name                      Type                      Size  Value      
# ---------------------------------------------------------------------
# ahb_master_sequence_item  ahb_master_sequence_item  -     @769       
#   i_addr                  integral                  32    'h0        
#   i_data                  integral                  32    'h11a4e1b3 
#   i_burst_type            burst_t                   3     INCR16     
#   i_data_size             hsize_t                   3     HSIZE_HWORD
#   haddr                   integral                  32    'ha28      
#   i_write                 integral                  1     'h1        
#   i_wrap_en               integral                  1     'h0X       
#   i_busy                  integral                  1     'h0X       
# ---------------------------------------------------------------------
# 
# UVM_INFO .\TB\sv\ahb_slave_monitor.sv(84) @ 85: uvm_test_top.tb.env.slave_agent.monitor [ahb_slave_monitor] Packet Collected :
# -------------------------------------------------------------------
# Name                     Type                     Size  Value      
# -------------------------------------------------------------------
# ahb_slave_sequence_item  ahb_slave_sequence_item  -     @761       
#   haddr                  integral                 32    'ha28      
#   hwrite                 integral                 1     'h1        
#   hburst                 burst_t                  3     INCR16     
#   hsize                  hsize_t                  3     HSIZE_HWORD
#   htrans                 htrans_t                 2     SEQ        
#   hwdata                 integral                 32    'h11a4e1b3 
#   hrdata                 integral                 32    'h0        
#   hready                 integral                 1     'h0X       
#   hresp                  integral                 1     'h0        
# -------------------------------------------------------------------
# 
# [COVER] OKAY COMPLETE observed
# UVM_INFO .\TB\sv\ahb_slave_monitor.sv(84) @ 95: uvm_test_top.tb.env.slave_agent.monitor [ahb_slave_monitor] Packet Collected :
# -------------------------------------------------------------------
# Name                     Type                     Size  Value      
# -------------------------------------------------------------------
# ahb_slave_sequence_item  ahb_slave_sequence_item  -     @785       
#   haddr                  integral                 32    'ha2a      
#   hwrite                 integral                 1     'h1        
#   hburst                 burst_t                  3     INCR16     
#   hsize                  hsize_t                  3     HSIZE_HWORD
#   htrans                 htrans_t                 2     SEQ        
#   hwdata                 integral                 32    'h11a4e1b4 
#   hrdata                 integral                 32    'h0        
#   hready                 integral                 1     'h0X       
#   hresp                  integral                 1     'h0        
# -------------------------------------------------------------------
# 
# UVM_INFO .\TB\sv\ahb_master_monitor.sv(74) @ 95: uvm_test_top.tb.env.master_agent.monitor [ahb_master_monitor] Packet Collected :
# ---------------------------------------------------------------------
# Name                      Type                      Size  Value      
# ---------------------------------------------------------------------
# ahb_master_sequence_item  ahb_master_sequence_item  -     @777       
#   i_addr                  integral                  32    'h0        
#   i_data                  integral                  32    'h11a4e1b4 
#   i_burst_type            burst_t                   3     INCR16     
#   i_data_size             hsize_t                   3     HSIZE_HWORD
#   haddr                   integral                  32    'ha2a      
#   i_write                 integral                  1     'h1        
#   i_wrap_en               integral                  1     'h0X       
#   i_busy                  integral                  1     'h0X       
# ---------------------------------------------------------------------
# 
# [COVER] OKAY COMPLETE observed
# UVM_INFO .\TB\sv\ahb_master_monitor.sv(74) @ 105: uvm_test_top.tb.env.master_agent.monitor [ahb_master_monitor] Packet Collected :
# ---------------------------------------------------------------------
# Name                      Type                      Size  Value      
# ---------------------------------------------------------------------
# ahb_master_sequence_item  ahb_master_sequence_item  -     @801       
#   i_addr                  integral                  32    'h0        
#   i_data                  integral                  32    'h11a4e1b5 
#   i_burst_type            burst_t                   3     INCR16     
#   i_data_size             hsize_t                   3     HSIZE_HWORD
#   haddr                   integral                  32    'ha2c      
#   i_write                 integral                  1     'h1        
#   i_wrap_en               integral                  1     'h0X       
#   i_busy                  integral                  1     'h0X       
# ---------------------------------------------------------------------
# 
# UVM_INFO .\TB\sv\ahb_slave_monitor.sv(84) @ 105: uvm_test_top.tb.env.slave_agent.monitor [ahb_slave_monitor] Packet Collected :
# -------------------------------------------------------------------
# Name                     Type                     Size  Value      
# -------------------------------------------------------------------
# ahb_slave_sequence_item  ahb_slave_sequence_item  -     @793       
#   haddr                  integral                 32    'ha2c      
#   hwrite                 integral                 1     'h1        
#   hburst                 burst_t                  3     INCR16     
#   hsize                  hsize_t                  3     HSIZE_HWORD
#   htrans                 htrans_t                 2     SEQ        
#   hwdata                 integral                 32    'h11a4e1b5 
#   hrdata                 integral                 32    'h0        
#   hready                 integral                 1     'h0X       
#   hresp                  integral                 1     'h0        
# -------------------------------------------------------------------
# 
# [COVER] OKAY COMPLETE observed
# UVM_INFO .\TB\sv\ahb_slave_monitor.sv(84) @ 115: uvm_test_top.tb.env.slave_agent.monitor [ahb_slave_monitor] Packet Collected :
# -------------------------------------------------------------------
# Name                     Type                     Size  Value      
# -------------------------------------------------------------------
# ahb_slave_sequence_item  ahb_slave_sequence_item  -     @817       
#   haddr                  integral                 32    'ha2e      
#   hwrite                 integral                 1     'h1        
#   hburst                 burst_t                  3     INCR16     
#   hsize                  hsize_t                  3     HSIZE_HWORD
#   htrans                 htrans_t                 2     SEQ        
#   hwdata                 integral                 32    'h11a4e1b6 
#   hrdata                 integral                 32    'h0        
#   hready                 integral                 1     'h0X       
#   hresp                  integral                 1     'h0        
# -------------------------------------------------------------------
# 
# UVM_INFO .\TB\sv\ahb_master_monitor.sv(74) @ 115: uvm_test_top.tb.env.master_agent.monitor [ahb_master_monitor] Packet Collected :
# ---------------------------------------------------------------------
# Name                      Type                      Size  Value      
# ---------------------------------------------------------------------
# ahb_master_sequence_item  ahb_master_sequence_item  -     @809       
#   i_addr                  integral                  32    'h0        
#   i_data                  integral                  32    'h11a4e1b6 
#   i_burst_type            burst_t                   3     INCR16     
#   i_data_size             hsize_t                   3     HSIZE_HWORD
#   haddr                   integral                  32    'ha2e      
#   i_write                 integral                  1     'h1        
#   i_wrap_en               integral                  1     'h0X       
#   i_busy                  integral                  1     'h0X       
# ---------------------------------------------------------------------
# 
# [COVER] OKAY COMPLETE observed
# UVM_INFO .\TB\sv\ahb_master_monitor.sv(74) @ 125: uvm_test_top.tb.env.master_agent.monitor [ahb_master_monitor] Packet Collected :
# ---------------------------------------------------------------------
# Name                      Type                      Size  Value      
# ---------------------------------------------------------------------
# ahb_master_sequence_item  ahb_master_sequence_item  -     @833       
#   i_addr                  integral                  32    'h0        
#   i_data                  integral                  32    'h11a4e1b7 
#   i_burst_type            burst_t                   3     INCR16     
#   i_data_size             hsize_t                   3     HSIZE_HWORD
#   haddr                   integral                  32    'ha30      
#   i_write                 integral                  1     'h1        
#   i_wrap_en               integral                  1     'h0X       
#   i_busy                  integral                  1     'h0X       
# ---------------------------------------------------------------------
# 
# UVM_INFO .\TB\sv\ahb_slave_monitor.sv(84) @ 125: uvm_test_top.tb.env.slave_agent.monitor [ahb_slave_monitor] Packet Collected :
# -------------------------------------------------------------------
# Name                     Type                     Size  Value      
# -------------------------------------------------------------------
# ahb_slave_sequence_item  ahb_slave_sequence_item  -     @825       
#   haddr                  integral                 32    'ha30      
#   hwrite                 integral                 1     'h1        
#   hburst                 burst_t                  3     INCR16     
#   hsize                  hsize_t                  3     HSIZE_HWORD
#   htrans                 htrans_t                 2     SEQ        
#   hwdata                 integral                 32    'h11a4e1b7 
#   hrdata                 integral                 32    'h0        
#   hready                 integral                 1     'h0X       
#   hresp                  integral                 1     'h0        
# -------------------------------------------------------------------
# 
# [COVER] OKAY COMPLETE observed
# UVM_INFO .\TB\sv\ahb_slave_monitor.sv(84) @ 135: uvm_test_top.tb.env.slave_agent.monitor [ahb_slave_monitor] Packet Collected :
# -------------------------------------------------------------------
# Name                     Type                     Size  Value      
# -------------------------------------------------------------------
# ahb_slave_sequence_item  ahb_slave_sequence_item  -     @849       
#   haddr                  integral                 32    'ha32      
#   hwrite                 integral                 1     'h1        
#   hburst                 burst_t                  3     INCR16     
#   hsize                  hsize_t                  3     HSIZE_HWORD
#   htrans                 htrans_t                 2     SEQ        
#   hwdata                 integral                 32    'h11a4e1b8 
#   hrdata                 integral                 32    'h0        
#   hready                 integral                 1     'h0X       
#   hresp                  integral                 1     'h0        
# -------------------------------------------------------------------
# 
# UVM_INFO .\TB\sv\ahb_master_monitor.sv(74) @ 135: uvm_test_top.tb.env.master_agent.monitor [ahb_master_monitor] Packet Collected :
# ---------------------------------------------------------------------
# Name                      Type                      Size  Value      
# ---------------------------------------------------------------------
# ahb_master_sequence_item  ahb_master_sequence_item  -     @841       
#   i_addr                  integral                  32    'h0        
#   i_data                  integral                  32    'h11a4e1b8 
#   i_burst_type            burst_t                   3     INCR16     
#   i_data_size             hsize_t                   3     HSIZE_HWORD
#   haddr                   integral                  32    'ha32      
#   i_write                 integral                  1     'h1        
#   i_wrap_en               integral                  1     'h0X       
#   i_busy                  integral                  1     'h0X       
# ---------------------------------------------------------------------
# 
# [COVER] OKAY COMPLETE observed
# UVM_INFO .\TB\sv\ahb_master_monitor.sv(74) @ 145: uvm_test_top.tb.env.master_agent.monitor [ahb_master_monitor] Packet Collected :
# ---------------------------------------------------------------------
# Name                      Type                      Size  Value      
# ---------------------------------------------------------------------
# ahb_master_sequence_item  ahb_master_sequence_item  -     @865       
#   i_addr                  integral                  32    'h0        
#   i_data                  integral                  32    'h11a4e1b9 
#   i_burst_type            burst_t                   3     INCR16     
#   i_data_size             hsize_t                   3     HSIZE_HWORD
#   haddr                   integral                  32    'ha34      
#   i_write                 integral                  1     'h1        
#   i_wrap_en               integral                  1     'h0X       
#   i_busy                  integral                  1     'h0X       
# ---------------------------------------------------------------------
# 
# UVM_INFO .\TB\sv\ahb_slave_monitor.sv(84) @ 145: uvm_test_top.tb.env.slave_agent.monitor [ahb_slave_monitor] Packet Collected :
# -------------------------------------------------------------------
# Name                     Type                     Size  Value      
# -------------------------------------------------------------------
# ahb_slave_sequence_item  ahb_slave_sequence_item  -     @857       
#   haddr                  integral                 32    'ha34      
#   hwrite                 integral                 1     'h1        
#   hburst                 burst_t                  3     INCR16     
#   hsize                  hsize_t                  3     HSIZE_HWORD
#   htrans                 htrans_t                 2     SEQ        
#   hwdata                 integral                 32    'h11a4e1b9 
#   hrdata                 integral                 32    'h0        
#   hready                 integral                 1     'h0X       
#   hresp                  integral                 1     'h0        
# -------------------------------------------------------------------
# 
# [COVER] OKAY COMPLETE observed
# UVM_INFO .\TB\sv\ahb_slave_monitor.sv(84) @ 155: uvm_test_top.tb.env.slave_agent.monitor [ahb_slave_monitor] Packet Collected :
# -------------------------------------------------------------------
# Name                     Type                     Size  Value      
# -------------------------------------------------------------------
# ahb_slave_sequence_item  ahb_slave_sequence_item  -     @881       
#   haddr                  integral                 32    'ha36      
#   hwrite                 integral                 1     'h1        
#   hburst                 burst_t                  3     INCR16     
#   hsize                  hsize_t                  3     HSIZE_HWORD
#   htrans                 htrans_t                 2     SEQ        
#   hwdata                 integral                 32    'h11a4e1ba 
#   hrdata                 integral                 32    'h0        
#   hready                 integral                 1     'h0X       
#   hresp                  integral                 1     'h0        
# -------------------------------------------------------------------
# 
# UVM_INFO .\TB\sv\ahb_master_monitor.sv(74) @ 155: uvm_test_top.tb.env.master_agent.monitor [ahb_master_monitor] Packet Collected :
# ---------------------------------------------------------------------
# Name                      Type                      Size  Value      
# ---------------------------------------------------------------------
# ahb_master_sequence_item  ahb_master_sequence_item  -     @873       
#   i_addr                  integral                  32    'h0        
#   i_data                  integral                  32    'h11a4e1ba 
#   i_burst_type            burst_t                   3     INCR16     
#   i_data_size             hsize_t                   3     HSIZE_HWORD
#   haddr                   integral                  32    'ha36      
#   i_write                 integral                  1     'h1        
#   i_wrap_en               integral                  1     'h0X       
#   i_busy                  integral                  1     'h0X       
# ---------------------------------------------------------------------
# 
# [COVER] OKAY COMPLETE observed
# UVM_INFO .\TB\sv\ahb_master_monitor.sv(74) @ 165: uvm_test_top.tb.env.master_agent.monitor [ahb_master_monitor] Packet Collected :
# ---------------------------------------------------------------------
# Name                      Type                      Size  Value      
# ---------------------------------------------------------------------
# ahb_master_sequence_item  ahb_master_sequence_item  -     @897       
#   i_addr                  integral                  32    'h0        
#   i_data                  integral                  32    'h11a4e1bb 
#   i_burst_type            burst_t                   3     INCR16     
#   i_data_size             hsize_t                   3     HSIZE_HWORD
#   haddr                   integral                  32    'ha38      
#   i_write                 integral                  1     'h1        
#   i_wrap_en               integral                  1     'h0X       
#   i_busy                  integral                  1     'h0X       
# ---------------------------------------------------------------------
# 
# UVM_INFO .\TB\sv\ahb_slave_monitor.sv(84) @ 165: uvm_test_top.tb.env.slave_agent.monitor [ahb_slave_monitor] Packet Collected :
# -------------------------------------------------------------------
# Name                     Type                     Size  Value      
# -------------------------------------------------------------------
# ahb_slave_sequence_item  ahb_slave_sequence_item  -     @889       
#   haddr                  integral                 32    'ha38      
#   hwrite                 integral                 1     'h1        
#   hburst                 burst_t                  3     INCR16     
#   hsize                  hsize_t                  3     HSIZE_HWORD
#   htrans                 htrans_t                 2     SEQ        
#   hwdata                 integral                 32    'h11a4e1bb 
#   hrdata                 integral                 32    'h0        
#   hready                 integral                 1     'h0X       
#   hresp                  integral                 1     'h0        
# -------------------------------------------------------------------
# 
# [COVER] OKAY COMPLETE observed
# UVM_INFO .\TB\sv\ahb_slave_monitor.sv(84) @ 175: uvm_test_top.tb.env.slave_agent.monitor [ahb_slave_monitor] Packet Collected :
# -------------------------------------------------------------------
# Name                     Type                     Size  Value      
# -------------------------------------------------------------------
# ahb_slave_sequence_item  ahb_slave_sequence_item  -     @913       
#   haddr                  integral                 32    'ha3a      
#   hwrite                 integral                 1     'h1        
#   hburst                 burst_t                  3     INCR16     
#   hsize                  hsize_t                  3     HSIZE_HWORD
#   htrans                 htrans_t                 2     SEQ        
#   hwdata                 integral                 32    'h11a4e1bc 
#   hrdata                 integral                 32    'h0        
#   hready                 integral                 1     'h0X       
#   hresp                  integral                 1     'h0        
# -------------------------------------------------------------------
# 
# UVM_INFO .\TB\sv\ahb_master_monitor.sv(74) @ 175: uvm_test_top.tb.env.master_agent.monitor [ahb_master_monitor] Packet Collected :
# ---------------------------------------------------------------------
# Name                      Type                      Size  Value      
# ---------------------------------------------------------------------
# ahb_master_sequence_item  ahb_master_sequence_item  -     @905       
#   i_addr                  integral                  32    'h0        
#   i_data                  integral                  32    'h11a4e1bc 
#   i_burst_type            burst_t                   3     INCR16     
#   i_data_size             hsize_t                   3     HSIZE_HWORD
#   haddr                   integral                  32    'ha3a      
#   i_write                 integral                  1     'h1        
#   i_wrap_en               integral                  1     'h0X       
#   i_busy                  integral                  1     'h0X       
# ---------------------------------------------------------------------
# 
# [COVER] OKAY COMPLETE observed
# UVM_INFO .\TB\sv\ahb_master_monitor.sv(74) @ 185: uvm_test_top.tb.env.master_agent.monitor [ahb_master_monitor] Packet Collected :
# ---------------------------------------------------------------------
# Name                      Type                      Size  Value      
# ---------------------------------------------------------------------
# ahb_master_sequence_item  ahb_master_sequence_item  -     @929       
#   i_addr                  integral                  32    'h0        
#   i_data                  integral                  32    'h11a4e1bd 
#   i_burst_type            burst_t                   3     INCR16     
#   i_data_size             hsize_t                   3     HSIZE_HWORD
#   haddr                   integral                  32    'ha3c      
#   i_write                 integral                  1     'h1        
#   i_wrap_en               integral                  1     'h0X       
#   i_busy                  integral                  1     'h0X       
# ---------------------------------------------------------------------
# 
# UVM_INFO .\TB\sv\ahb_slave_monitor.sv(84) @ 185: uvm_test_top.tb.env.slave_agent.monitor [ahb_slave_monitor] Packet Collected :
# -------------------------------------------------------------------
# Name                     Type                     Size  Value      
# -------------------------------------------------------------------
# ahb_slave_sequence_item  ahb_slave_sequence_item  -     @921       
#   haddr                  integral                 32    'ha3c      
#   hwrite                 integral                 1     'h1        
#   hburst                 burst_t                  3     INCR16     
#   hsize                  hsize_t                  3     HSIZE_HWORD
#   htrans                 htrans_t                 2     SEQ        
#   hwdata                 integral                 32    'h11a4e1bd 
#   hrdata                 integral                 32    'h0        
#   hready                 integral                 1     'h0X       
#   hresp                  integral                 1     'h0        
# -------------------------------------------------------------------
# 
# [COVER] OKAY COMPLETE observed
# UVM_INFO .\TB\sv\ahb_slave_monitor.sv(84) @ 195: uvm_test_top.tb.env.slave_agent.monitor [ahb_slave_monitor] Packet Collected :
# -------------------------------------------------------------------
# Name                     Type                     Size  Value      
# -------------------------------------------------------------------
# ahb_slave_sequence_item  ahb_slave_sequence_item  -     @945       
#   haddr                  integral                 32    'ha3e      
#   hwrite                 integral                 1     'h1        
#   hburst                 burst_t                  3     INCR16     
#   hsize                  hsize_t                  3     HSIZE_HWORD
#   htrans                 htrans_t                 2     SEQ        
#   hwdata                 integral                 32    'h11a4e1be 
#   hrdata                 integral                 32    'h0        
#   hready                 integral                 1     'h0X       
#   hresp                  integral                 1     'h0        
# -------------------------------------------------------------------
# 
# UVM_INFO .\TB\sv\ahb_master_monitor.sv(74) @ 195: uvm_test_top.tb.env.master_agent.monitor [ahb_master_monitor] Packet Collected :
# ---------------------------------------------------------------------
# Name                      Type                      Size  Value      
# ---------------------------------------------------------------------
# ahb_master_sequence_item  ahb_master_sequence_item  -     @937       
#   i_addr                  integral                  32    'h0        
#   i_data                  integral                  32    'h11a4e1be 
#   i_burst_type            burst_t                   3     INCR16     
#   i_data_size             hsize_t                   3     HSIZE_HWORD
#   haddr                   integral                  32    'ha3e      
#   i_write                 integral                  1     'h1        
#   i_wrap_en               integral                  1     'h0X       
#   i_busy                  integral                  1     'h0X       
# ---------------------------------------------------------------------
# 
# [COVER] OKAY COMPLETE observed
# UVM_INFO .\TB\sv\ahb_master_monitor.sv(74) @ 205: uvm_test_top.tb.env.master_agent.monitor [ahb_master_monitor] Packet Collected :
# ---------------------------------------------------------------------
# Name                      Type                      Size  Value      
# ---------------------------------------------------------------------
# ahb_master_sequence_item  ahb_master_sequence_item  -     @961       
#   i_addr                  integral                  32    'h0        
#   i_data                  integral                  32    'h11a4e1bf 
#   i_burst_type            burst_t                   3     INCR16     
#   i_data_size             hsize_t                   3     HSIZE_HWORD
#   haddr                   integral                  32    'ha40      
#   i_write                 integral                  1     'h1        
#   i_wrap_en               integral                  1     'h0X       
#   i_busy                  integral                  1     'h0X       
# ---------------------------------------------------------------------
# 
# UVM_INFO .\TB\sv\ahb_slave_monitor.sv(84) @ 205: uvm_test_top.tb.env.slave_agent.monitor [ahb_slave_monitor] Packet Collected :
# -------------------------------------------------------------------
# Name                     Type                     Size  Value      
# -------------------------------------------------------------------
# ahb_slave_sequence_item  ahb_slave_sequence_item  -     @953       
#   haddr                  integral                 32    'ha40      
#   hwrite                 integral                 1     'h1        
#   hburst                 burst_t                  3     INCR16     
#   hsize                  hsize_t                  3     HSIZE_HWORD
#   htrans                 htrans_t                 2     SEQ        
#   hwdata                 integral                 32    'h11a4e1bf 
#   hrdata                 integral                 32    'h0        
#   hready                 integral                 1     'h0X       
#   hresp                  integral                 1     'h0        
# -------------------------------------------------------------------
# 
# [COVER] OKAY COMPLETE observed
# UVM_INFO .\TB\sv\ahb_slave_monitor.sv(84) @ 215: uvm_test_top.tb.env.slave_agent.monitor [ahb_slave_monitor] Packet Collected :
# -------------------------------------------------------------------
# Name                     Type                     Size  Value      
# -------------------------------------------------------------------
# ahb_slave_sequence_item  ahb_slave_sequence_item  -     @977       
#   haddr                  integral                 32    'ha42      
#   hwrite                 integral                 1     'h1        
#   hburst                 burst_t                  3     INCR16     
#   hsize                  hsize_t                  3     HSIZE_HWORD
#   htrans                 htrans_t                 2     SEQ        
#   hwdata                 integral                 32    'h11a4e1c0 
#   hrdata                 integral                 32    'h0        
#   hready                 integral                 1     'h0X       
#   hresp                  integral                 1     'h0        
# -------------------------------------------------------------------
# 
# UVM_INFO .\TB\sv\ahb_master_monitor.sv(74) @ 215: uvm_test_top.tb.env.master_agent.monitor [ahb_master_monitor] Packet Collected :
# ---------------------------------------------------------------------
# Name                      Type                      Size  Value      
# ---------------------------------------------------------------------
# ahb_master_sequence_item  ahb_master_sequence_item  -     @969       
#   i_addr                  integral                  32    'h0        
#   i_data                  integral                  32    'h11a4e1c0 
#   i_burst_type            burst_t                   3     INCR16     
#   i_data_size             hsize_t                   3     HSIZE_HWORD
#   haddr                   integral                  32    'ha42      
#   i_write                 integral                  1     'h1        
#   i_wrap_en               integral                  1     'h0X       
#   i_busy                  integral                  1     'h0X       
# ---------------------------------------------------------------------
# 
# [COVER] OKAY COMPLETE observed
# UVM_INFO .\TB\sv\ahb_master_monitor.sv(74) @ 225: uvm_test_top.tb.env.master_agent.monitor [ahb_master_monitor] Packet Collected :
# ---------------------------------------------------------------------
# Name                      Type                      Size  Value      
# ---------------------------------------------------------------------
# ahb_master_sequence_item  ahb_master_sequence_item  -     @993       
#   i_addr                  integral                  32    'h0        
#   i_data                  integral                  32    'h11a4e1c1 
#   i_burst_type            burst_t                   3     INCR16     
#   i_data_size             hsize_t                   3     HSIZE_HWORD
#   haddr                   integral                  32    'ha44      
#   i_write                 integral                  1     'h1        
#   i_wrap_en               integral                  1     'h0X       
#   i_busy                  integral                  1     'h0X       
# ---------------------------------------------------------------------
# 
# UVM_INFO .\TB\sv\ahb_slave_monitor.sv(84) @ 225: uvm_test_top.tb.env.slave_agent.monitor [ahb_slave_monitor] Packet Collected :
# -------------------------------------------------------------------
# Name                     Type                     Size  Value      
# -------------------------------------------------------------------
# ahb_slave_sequence_item  ahb_slave_sequence_item  -     @985       
#   haddr                  integral                 32    'ha44      
#   hwrite                 integral                 1     'h1        
#   hburst                 burst_t                  3     INCR16     
#   hsize                  hsize_t                  3     HSIZE_HWORD
#   htrans                 htrans_t                 2     SEQ        
#   hwdata                 integral                 32    'h11a4e1c1 
#   hrdata                 integral                 32    'h0        
#   hready                 integral                 1     'h0X       
#   hresp                  integral                 1     'h0        
# -------------------------------------------------------------------
# 
# [COVER] OKAY COMPLETE observed
# [COVER] OKAY COMPLETE observed
# [COVER] OKAY COMPLETE observed
# [COVER] OKAY COMPLETE observed
# [COVER] OKAY COMPLETE observed
# Master First time Sample
# UVM_INFO .\TB\sv\ahb_master_monitor.sv(74) @ 275: uvm_test_top.tb.env.master_agent.monitor [ahb_master_monitor] Packet Collected :
# ---------------------------------------------------------------------
# Name                      Type                      Size  Value      
# ---------------------------------------------------------------------
# ahb_master_sequence_item  ahb_master_sequence_item  -     @1001      
#   i_addr                  integral                  32    'h0        
#   i_data                  integral                  32    'h11a4e1c1 
#   i_burst_type            burst_t                   3     INCR16     
#   i_data_size             hsize_t                   3     HSIZE_HWORD
#   haddr                   integral                  32    'ha26      
#   i_write                 integral                  1     'h0        
#   i_wrap_en               integral                  1     'h0X       
#   i_busy                  integral                  1     'h0X       
# ---------------------------------------------------------------------
# 
# Slave First time Sample
# UVM_INFO .\TB\sv\ahb_slave_monitor.sv(84) @ 275: uvm_test_top.tb.env.slave_agent.monitor [ahb_slave_monitor] Packet Collected :
# -------------------------------------------------------------------
# Name                     Type                     Size  Value      
# -------------------------------------------------------------------
# ahb_slave_sequence_item  ahb_slave_sequence_item  -     @1009      
#   haddr                  integral                 32    'ha26      
#   hwrite                 integral                 1     'h0        
#   hburst                 burst_t                  3     INCR16     
#   hsize                  hsize_t                  3     HSIZE_HWORD
#   htrans                 htrans_t                 2     NONSEQ     
#   hwdata                 integral                 32    'h0        
#   hrdata                 integral                 32    'he1b20000 
#   hready                 integral                 1     'h0X       
#   hresp                  integral                 1     'h0        
# -------------------------------------------------------------------
# 
# [COVER] OKAY COMPLETE observed
# UVM_INFO .\TB\sv\ahb_slave_monitor.sv(84) @ 285: uvm_test_top.tb.env.slave_agent.monitor [ahb_slave_monitor] Packet Collected :
# -------------------------------------------------------------------
# Name                     Type                     Size  Value      
# -------------------------------------------------------------------
# ahb_slave_sequence_item  ahb_slave_sequence_item  -     @1025      
#   haddr                  integral                 32    'ha28      
#   hwrite                 integral                 1     'h0        
#   hburst                 burst_t                  3     INCR16     
#   hsize                  hsize_t                  3     HSIZE_HWORD
#   htrans                 htrans_t                 2     SEQ        
#   hwdata                 integral                 32    'h0        
#   hrdata                 integral                 32    'he1b30000 
#   hready                 integral                 1     'h0X       
#   hresp                  integral                 1     'h0        
# -------------------------------------------------------------------
# 
# UVM_INFO .\TB\sv\ahb_master_monitor.sv(74) @ 285: uvm_test_top.tb.env.master_agent.monitor [ahb_master_monitor] Packet Collected :
# ---------------------------------------------------------------------
# Name                      Type                      Size  Value      
# ---------------------------------------------------------------------
# ahb_master_sequence_item  ahb_master_sequence_item  -     @1017      
#   i_addr                  integral                  32    'h0        
#   i_data                  integral                  32    'h11a4e1c1 
#   i_burst_type            burst_t                   3     INCR16     
#   i_data_size             hsize_t                   3     HSIZE_HWORD
#   haddr                   integral                  32    'ha28      
#   i_write                 integral                  1     'h0        
#   i_wrap_en               integral                  1     'h0X       
#   i_busy                  integral                  1     'h0X       
# ---------------------------------------------------------------------
# 
# [COVER] OKAY COMPLETE observed
# UVM_INFO .\TB\sv\ahb_master_monitor.sv(74) @ 295: uvm_test_top.tb.env.master_agent.monitor [ahb_master_monitor] Packet Collected :
# ---------------------------------------------------------------------
# Name                      Type                      Size  Value      
# ---------------------------------------------------------------------
# ahb_master_sequence_item  ahb_master_sequence_item  -     @1041      
#   i_addr                  integral                  32    'h0        
#   i_data                  integral                  32    'h11a4e1c1 
#   i_burst_type            burst_t                   3     INCR16     
#   i_data_size             hsize_t                   3     HSIZE_HWORD
#   haddr                   integral                  32    'ha2a      
#   i_write                 integral                  1     'h0        
#   i_wrap_en               integral                  1     'h0X       
#   i_busy                  integral                  1     'h0X       
# ---------------------------------------------------------------------
# 
# UVM_INFO .\TB\sv\ahb_slave_monitor.sv(84) @ 295: uvm_test_top.tb.env.slave_agent.monitor [ahb_slave_monitor] Packet Collected :
# -------------------------------------------------------------------
# Name                     Type                     Size  Value      
# -------------------------------------------------------------------
# ahb_slave_sequence_item  ahb_slave_sequence_item  -     @1033      
#   haddr                  integral                 32    'ha2a      
#   hwrite                 integral                 1     'h0        
#   hburst                 burst_t                  3     INCR16     
#   hsize                  hsize_t                  3     HSIZE_HWORD
#   htrans                 htrans_t                 2     SEQ        
#   hwdata                 integral                 32    'h0        
#   hrdata                 integral                 32    'he1b40000 
#   hready                 integral                 1     'h0X       
#   hresp                  integral                 1     'h0        
# -------------------------------------------------------------------
# 
# [COVER] OKAY COMPLETE observed
# UVM_INFO .\TB\sv\ahb_slave_monitor.sv(84) @ 305: uvm_test_top.tb.env.slave_agent.monitor [ahb_slave_monitor] Packet Collected :
# -------------------------------------------------------------------
# Name                     Type                     Size  Value      
# -------------------------------------------------------------------
# ahb_slave_sequence_item  ahb_slave_sequence_item  -     @1057      
#   haddr                  integral                 32    'ha2c      
#   hwrite                 integral                 1     'h0        
#   hburst                 burst_t                  3     INCR16     
#   hsize                  hsize_t                  3     HSIZE_HWORD
#   htrans                 htrans_t                 2     SEQ        
#   hwdata                 integral                 32    'h0        
#   hrdata                 integral                 32    'he1b50000 
#   hready                 integral                 1     'h0X       
#   hresp                  integral                 1     'h0        
# -------------------------------------------------------------------
# 
# UVM_INFO .\TB\sv\ahb_master_monitor.sv(74) @ 305: uvm_test_top.tb.env.master_agent.monitor [ahb_master_monitor] Packet Collected :
# ---------------------------------------------------------------------
# Name                      Type                      Size  Value      
# ---------------------------------------------------------------------
# ahb_master_sequence_item  ahb_master_sequence_item  -     @1049      
#   i_addr                  integral                  32    'h0        
#   i_data                  integral                  32    'h11a4e1c1 
#   i_burst_type            burst_t                   3     INCR16     
#   i_data_size             hsize_t                   3     HSIZE_HWORD
#   haddr                   integral                  32    'ha2c      
#   i_write                 integral                  1     'h0        
#   i_wrap_en               integral                  1     'h0X       
#   i_busy                  integral                  1     'h0X       
# ---------------------------------------------------------------------
# 
# [COVER] OKAY COMPLETE observed
# UVM_INFO .\TB\sv\ahb_master_monitor.sv(74) @ 315: uvm_test_top.tb.env.master_agent.monitor [ahb_master_monitor] Packet Collected :
# ---------------------------------------------------------------------
# Name                      Type                      Size  Value      
# ---------------------------------------------------------------------
# ahb_master_sequence_item  ahb_master_sequence_item  -     @1073      
#   i_addr                  integral                  32    'h0        
#   i_data                  integral                  32    'h11a4e1c1 
#   i_burst_type            burst_t                   3     INCR16     
#   i_data_size             hsize_t                   3     HSIZE_HWORD
#   haddr                   integral                  32    'ha2e      
#   i_write                 integral                  1     'h0        
#   i_wrap_en               integral                  1     'h0X       
#   i_busy                  integral                  1     'h0X       
# ---------------------------------------------------------------------
# 
# UVM_INFO .\TB\sv\ahb_slave_monitor.sv(84) @ 315: uvm_test_top.tb.env.slave_agent.monitor [ahb_slave_monitor] Packet Collected :
# -------------------------------------------------------------------
# Name                     Type                     Size  Value      
# -------------------------------------------------------------------
# ahb_slave_sequence_item  ahb_slave_sequence_item  -     @1065      
#   haddr                  integral                 32    'ha2e      
#   hwrite                 integral                 1     'h0        
#   hburst                 burst_t                  3     INCR16     
#   hsize                  hsize_t                  3     HSIZE_HWORD
#   htrans                 htrans_t                 2     SEQ        
#   hwdata                 integral                 32    'h0        
#   hrdata                 integral                 32    'he1b60000 
#   hready                 integral                 1     'h0X       
#   hresp                  integral                 1     'h0        
# -------------------------------------------------------------------
# 
# [COVER] OKAY COMPLETE observed
# UVM_INFO .\TB\sv\ahb_slave_monitor.sv(84) @ 325: uvm_test_top.tb.env.slave_agent.monitor [ahb_slave_monitor] Packet Collected :
# -------------------------------------------------------------------
# Name                     Type                     Size  Value      
# -------------------------------------------------------------------
# ahb_slave_sequence_item  ahb_slave_sequence_item  -     @1089      
#   haddr                  integral                 32    'ha30      
#   hwrite                 integral                 1     'h0        
#   hburst                 burst_t                  3     INCR16     
#   hsize                  hsize_t                  3     HSIZE_HWORD
#   htrans                 htrans_t                 2     SEQ        
#   hwdata                 integral                 32    'h0        
#   hrdata                 integral                 32    'he1b70000 
#   hready                 integral                 1     'h0X       
#   hresp                  integral                 1     'h0        
# -------------------------------------------------------------------
# 
# UVM_INFO .\TB\sv\ahb_master_monitor.sv(74) @ 325: uvm_test_top.tb.env.master_agent.monitor [ahb_master_monitor] Packet Collected :
# ---------------------------------------------------------------------
# Name                      Type                      Size  Value      
# ---------------------------------------------------------------------
# ahb_master_sequence_item  ahb_master_sequence_item  -     @1081      
#   i_addr                  integral                  32    'h0        
#   i_data                  integral                  32    'h11a4e1c1 
#   i_burst_type            burst_t                   3     INCR16     
#   i_data_size             hsize_t                   3     HSIZE_HWORD
#   haddr                   integral                  32    'ha30      
#   i_write                 integral                  1     'h0        
#   i_wrap_en               integral                  1     'h0X       
#   i_busy                  integral                  1     'h0X       
# ---------------------------------------------------------------------
# 
# [COVER] OKAY COMPLETE observed
# UVM_INFO .\TB\sv\ahb_master_monitor.sv(74) @ 335: uvm_test_top.tb.env.master_agent.monitor [ahb_master_monitor] Packet Collected :
# ---------------------------------------------------------------------
# Name                      Type                      Size  Value      
# ---------------------------------------------------------------------
# ahb_master_sequence_item  ahb_master_sequence_item  -     @1105      
#   i_addr                  integral                  32    'h0        
#   i_data                  integral                  32    'h11a4e1c1 
#   i_burst_type            burst_t                   3     INCR16     
#   i_data_size             hsize_t                   3     HSIZE_HWORD
#   haddr                   integral                  32    'ha32      
#   i_write                 integral                  1     'h0        
#   i_wrap_en               integral                  1     'h0X       
#   i_busy                  integral                  1     'h0X       
# ---------------------------------------------------------------------
# 
# UVM_INFO .\TB\sv\ahb_slave_monitor.sv(84) @ 335: uvm_test_top.tb.env.slave_agent.monitor [ahb_slave_monitor] Packet Collected :
# -------------------------------------------------------------------
# Name                     Type                     Size  Value      
# -------------------------------------------------------------------
# ahb_slave_sequence_item  ahb_slave_sequence_item  -     @1097      
#   haddr                  integral                 32    'ha32      
#   hwrite                 integral                 1     'h0        
#   hburst                 burst_t                  3     INCR16     
#   hsize                  hsize_t                  3     HSIZE_HWORD
#   htrans                 htrans_t                 2     SEQ        
#   hwdata                 integral                 32    'h0        
#   hrdata                 integral                 32    'he1b80000 
#   hready                 integral                 1     'h0X       
#   hresp                  integral                 1     'h0        
# -------------------------------------------------------------------
# 
# [COVER] OKAY COMPLETE observed
# UVM_INFO .\TB\sv\ahb_slave_monitor.sv(84) @ 345: uvm_test_top.tb.env.slave_agent.monitor [ahb_slave_monitor] Packet Collected :
# -------------------------------------------------------------------
# Name                     Type                     Size  Value      
# -------------------------------------------------------------------
# ahb_slave_sequence_item  ahb_slave_sequence_item  -     @1121      
#   haddr                  integral                 32    'ha34      
#   hwrite                 integral                 1     'h0        
#   hburst                 burst_t                  3     INCR16     
#   hsize                  hsize_t                  3     HSIZE_HWORD
#   htrans                 htrans_t                 2     SEQ        
#   hwdata                 integral                 32    'h0        
#   hrdata                 integral                 32    'he1b90000 
#   hready                 integral                 1     'h0X       
#   hresp                  integral                 1     'h0        
# -------------------------------------------------------------------
# 
# UVM_INFO .\TB\sv\ahb_master_monitor.sv(74) @ 345: uvm_test_top.tb.env.master_agent.monitor [ahb_master_monitor] Packet Collected :
# ---------------------------------------------------------------------
# Name                      Type                      Size  Value      
# ---------------------------------------------------------------------
# ahb_master_sequence_item  ahb_master_sequence_item  -     @1113      
#   i_addr                  integral                  32    'h0        
#   i_data                  integral                  32    'h11a4e1c1 
#   i_burst_type            burst_t                   3     INCR16     
#   i_data_size             hsize_t                   3     HSIZE_HWORD
#   haddr                   integral                  32    'ha34      
#   i_write                 integral                  1     'h0        
#   i_wrap_en               integral                  1     'h0X       
#   i_busy                  integral                  1     'h0X       
# ---------------------------------------------------------------------
# 
# [COVER] OKAY COMPLETE observed
# UVM_INFO .\TB\sv\ahb_master_monitor.sv(74) @ 355: uvm_test_top.tb.env.master_agent.monitor [ahb_master_monitor] Packet Collected :
# ---------------------------------------------------------------------
# Name                      Type                      Size  Value      
# ---------------------------------------------------------------------
# ahb_master_sequence_item  ahb_master_sequence_item  -     @1137      
#   i_addr                  integral                  32    'h0        
#   i_data                  integral                  32    'h11a4e1c1 
#   i_burst_type            burst_t                   3     INCR16     
#   i_data_size             hsize_t                   3     HSIZE_HWORD
#   haddr                   integral                  32    'ha36      
#   i_write                 integral                  1     'h0        
#   i_wrap_en               integral                  1     'h0X       
#   i_busy                  integral                  1     'h0X       
# ---------------------------------------------------------------------
# 
# UVM_INFO .\TB\sv\ahb_slave_monitor.sv(84) @ 355: uvm_test_top.tb.env.slave_agent.monitor [ahb_slave_monitor] Packet Collected :
# -------------------------------------------------------------------
# Name                     Type                     Size  Value      
# -------------------------------------------------------------------
# ahb_slave_sequence_item  ahb_slave_sequence_item  -     @1129      
#   haddr                  integral                 32    'ha36      
#   hwrite                 integral                 1     'h0        
#   hburst                 burst_t                  3     INCR16     
#   hsize                  hsize_t                  3     HSIZE_HWORD
#   htrans                 htrans_t                 2     SEQ        
#   hwdata                 integral                 32    'h0        
#   hrdata                 integral                 32    'he1ba0000 
#   hready                 integral                 1     'h0X       
#   hresp                  integral                 1     'h0        
# -------------------------------------------------------------------
# 
# [COVER] OKAY COMPLETE observed
# UVM_INFO .\TB\sv\ahb_slave_monitor.sv(84) @ 365: uvm_test_top.tb.env.slave_agent.monitor [ahb_slave_monitor] Packet Collected :
# -------------------------------------------------------------------
# Name                     Type                     Size  Value      
# -------------------------------------------------------------------
# ahb_slave_sequence_item  ahb_slave_sequence_item  -     @1153      
#   haddr                  integral                 32    'ha38      
#   hwrite                 integral                 1     'h0        
#   hburst                 burst_t                  3     INCR16     
#   hsize                  hsize_t                  3     HSIZE_HWORD
#   htrans                 htrans_t                 2     SEQ        
#   hwdata                 integral                 32    'h0        
#   hrdata                 integral                 32    'he1bb0000 
#   hready                 integral                 1     'h0X       
#   hresp                  integral                 1     'h0        
# -------------------------------------------------------------------
# 
# UVM_INFO .\TB\sv\ahb_master_monitor.sv(74) @ 365: uvm_test_top.tb.env.master_agent.monitor [ahb_master_monitor] Packet Collected :
# ---------------------------------------------------------------------
# Name                      Type                      Size  Value      
# ---------------------------------------------------------------------
# ahb_master_sequence_item  ahb_master_sequence_item  -     @1145      
#   i_addr                  integral                  32    'h0        
#   i_data                  integral                  32    'h11a4e1c1 
#   i_burst_type            burst_t                   3     INCR16     
#   i_data_size             hsize_t                   3     HSIZE_HWORD
#   haddr                   integral                  32    'ha38      
#   i_write                 integral                  1     'h0        
#   i_wrap_en               integral                  1     'h0X       
#   i_busy                  integral                  1     'h0X       
# ---------------------------------------------------------------------
# 
# [COVER] OKAY COMPLETE observed
# UVM_INFO .\TB\sv\ahb_master_monitor.sv(74) @ 375: uvm_test_top.tb.env.master_agent.monitor [ahb_master_monitor] Packet Collected :
# ---------------------------------------------------------------------
# Name                      Type                      Size  Value      
# ---------------------------------------------------------------------
# ahb_master_sequence_item  ahb_master_sequence_item  -     @1169      
#   i_addr                  integral                  32    'h0        
#   i_data                  integral                  32    'h11a4e1c1 
#   i_burst_type            burst_t                   3     INCR16     
#   i_data_size             hsize_t                   3     HSIZE_HWORD
#   haddr                   integral                  32    'ha3a      
#   i_write                 integral                  1     'h0        
#   i_wrap_en               integral                  1     'h0X       
#   i_busy                  integral                  1     'h0X       
# ---------------------------------------------------------------------
# 
# UVM_INFO .\TB\sv\ahb_slave_monitor.sv(84) @ 375: uvm_test_top.tb.env.slave_agent.monitor [ahb_slave_monitor] Packet Collected :
# -------------------------------------------------------------------
# Name                     Type                     Size  Value      
# -------------------------------------------------------------------
# ahb_slave_sequence_item  ahb_slave_sequence_item  -     @1161      
#   haddr                  integral                 32    'ha3a      
#   hwrite                 integral                 1     'h0        
#   hburst                 burst_t                  3     INCR16     
#   hsize                  hsize_t                  3     HSIZE_HWORD
#   htrans                 htrans_t                 2     SEQ        
#   hwdata                 integral                 32    'h0        
#   hrdata                 integral                 32    'he1bc0000 
#   hready                 integral                 1     'h0X       
#   hresp                  integral                 1     'h0        
# -------------------------------------------------------------------
# 
# [COVER] OKAY COMPLETE observed
# UVM_INFO .\TB\sv\ahb_slave_monitor.sv(84) @ 385: uvm_test_top.tb.env.slave_agent.monitor [ahb_slave_monitor] Packet Collected :
# -------------------------------------------------------------------
# Name                     Type                     Size  Value      
# -------------------------------------------------------------------
# ahb_slave_sequence_item  ahb_slave_sequence_item  -     @1185      
#   haddr                  integral                 32    'ha3c      
#   hwrite                 integral                 1     'h0        
#   hburst                 burst_t                  3     INCR16     
#   hsize                  hsize_t                  3     HSIZE_HWORD
#   htrans                 htrans_t                 2     SEQ        
#   hwdata                 integral                 32    'h0        
#   hrdata                 integral                 32    'he1bd0000 
#   hready                 integral                 1     'h0X       
#   hresp                  integral                 1     'h0        
# -------------------------------------------------------------------
# 
# UVM_INFO .\TB\sv\ahb_master_monitor.sv(74) @ 385: uvm_test_top.tb.env.master_agent.monitor [ahb_master_monitor] Packet Collected :
# ---------------------------------------------------------------------
# Name                      Type                      Size  Value      
# ---------------------------------------------------------------------
# ahb_master_sequence_item  ahb_master_sequence_item  -     @1177      
#   i_addr                  integral                  32    'h0        
#   i_data                  integral                  32    'h11a4e1c1 
#   i_burst_type            burst_t                   3     INCR16     
#   i_data_size             hsize_t                   3     HSIZE_HWORD
#   haddr                   integral                  32    'ha3c      
#   i_write                 integral                  1     'h0        
#   i_wrap_en               integral                  1     'h0X       
#   i_busy                  integral                  1     'h0X       
# ---------------------------------------------------------------------
# 
# [COVER] OKAY COMPLETE observed
# UVM_INFO .\TB\sv\ahb_master_monitor.sv(74) @ 395: uvm_test_top.tb.env.master_agent.monitor [ahb_master_monitor] Packet Collected :
# ---------------------------------------------------------------------
# Name                      Type                      Size  Value      
# ---------------------------------------------------------------------
# ahb_master_sequence_item  ahb_master_sequence_item  -     @1201      
#   i_addr                  integral                  32    'h0        
#   i_data                  integral                  32    'h11a4e1c1 
#   i_burst_type            burst_t                   3     INCR16     
#   i_data_size             hsize_t                   3     HSIZE_HWORD
#   haddr                   integral                  32    'ha3e      
#   i_write                 integral                  1     'h0        
#   i_wrap_en               integral                  1     'h0X       
#   i_busy                  integral                  1     'h0X       
# ---------------------------------------------------------------------
# 
# UVM_INFO .\TB\sv\ahb_slave_monitor.sv(84) @ 395: uvm_test_top.tb.env.slave_agent.monitor [ahb_slave_monitor] Packet Collected :
# -------------------------------------------------------------------
# Name                     Type                     Size  Value      
# -------------------------------------------------------------------
# ahb_slave_sequence_item  ahb_slave_sequence_item  -     @1193      
#   haddr                  integral                 32    'ha3e      
#   hwrite                 integral                 1     'h0        
#   hburst                 burst_t                  3     INCR16     
#   hsize                  hsize_t                  3     HSIZE_HWORD
#   htrans                 htrans_t                 2     SEQ        
#   hwdata                 integral                 32    'h0        
#   hrdata                 integral                 32    'he1be0000 
#   hready                 integral                 1     'h0X       
#   hresp                  integral                 1     'h0        
# -------------------------------------------------------------------
# 
# [COVER] OKAY COMPLETE observed
# UVM_INFO .\TB\sv\ahb_slave_monitor.sv(84) @ 405: uvm_test_top.tb.env.slave_agent.monitor [ahb_slave_monitor] Packet Collected :
# -------------------------------------------------------------------
# Name                     Type                     Size  Value      
# -------------------------------------------------------------------
# ahb_slave_sequence_item  ahb_slave_sequence_item  -     @1217      
#   haddr                  integral                 32    'ha40      
#   hwrite                 integral                 1     'h0        
#   hburst                 burst_t                  3     INCR16     
#   hsize                  hsize_t                  3     HSIZE_HWORD
#   htrans                 htrans_t                 2     SEQ        
#   hwdata                 integral                 32    'h0        
#   hrdata                 integral                 32    'he1bf0000 
#   hready                 integral                 1     'h0X       
#   hresp                  integral                 1     'h0        
# -------------------------------------------------------------------
# 
# UVM_INFO .\TB\sv\ahb_master_monitor.sv(74) @ 405: uvm_test_top.tb.env.master_agent.monitor [ahb_master_monitor] Packet Collected :
# ---------------------------------------------------------------------
# Name                      Type                      Size  Value      
# ---------------------------------------------------------------------
# ahb_master_sequence_item  ahb_master_sequence_item  -     @1209      
#   i_addr                  integral                  32    'h0        
#   i_data                  integral                  32    'h11a4e1c1 
#   i_burst_type            burst_t                   3     INCR16     
#   i_data_size             hsize_t                   3     HSIZE_HWORD
#   haddr                   integral                  32    'ha40      
#   i_write                 integral                  1     'h0        
#   i_wrap_en               integral                  1     'h0X       
#   i_busy                  integral                  1     'h0X       
# ---------------------------------------------------------------------
# 
# [COVER] OKAY COMPLETE observed
# UVM_INFO .\TB\sv\ahb_master_monitor.sv(74) @ 415: uvm_test_top.tb.env.master_agent.monitor [ahb_master_monitor] Packet Collected :
# ---------------------------------------------------------------------
# Name                      Type                      Size  Value      
# ---------------------------------------------------------------------
# ahb_master_sequence_item  ahb_master_sequence_item  -     @1233      
#   i_addr                  integral                  32    'h0        
#   i_data                  integral                  32    'h11a4e1c1 
#   i_burst_type            burst_t                   3     INCR16     
#   i_data_size             hsize_t                   3     HSIZE_HWORD
#   haddr                   integral                  32    'ha42      
#   i_write                 integral                  1     'h0        
#   i_wrap_en               integral                  1     'h0X       
#   i_busy                  integral                  1     'h0X       
# ---------------------------------------------------------------------
# 
# UVM_INFO .\TB\sv\ahb_slave_monitor.sv(84) @ 415: uvm_test_top.tb.env.slave_agent.monitor [ahb_slave_monitor] Packet Collected :
# -------------------------------------------------------------------
# Name                     Type                     Size  Value      
# -------------------------------------------------------------------
# ahb_slave_sequence_item  ahb_slave_sequence_item  -     @1225      
#   haddr                  integral                 32    'ha42      
#   hwrite                 integral                 1     'h0        
#   hburst                 burst_t                  3     INCR16     
#   hsize                  hsize_t                  3     HSIZE_HWORD
#   htrans                 htrans_t                 2     SEQ        
#   hwdata                 integral                 32    'h0        
#   hrdata                 integral                 32    'he1c00000 
#   hready                 integral                 1     'h0X       
#   hresp                  integral                 1     'h0        
# -------------------------------------------------------------------
# 
# [COVER] OKAY COMPLETE observed
# UVM_INFO .\TB\sv\ahb_slave_monitor.sv(84) @ 425: uvm_test_top.tb.env.slave_agent.monitor [ahb_slave_monitor] Packet Collected :
# -------------------------------------------------------------------
# Name                     Type                     Size  Value      
# -------------------------------------------------------------------
# ahb_slave_sequence_item  ahb_slave_sequence_item  -     @1249      
#   haddr                  integral                 32    'ha44      
#   hwrite                 integral                 1     'h0        
#   hburst                 burst_t                  3     INCR16     
#   hsize                  hsize_t                  3     HSIZE_HWORD
#   htrans                 htrans_t                 2     SEQ        
#   hwdata                 integral                 32    'h0        
#   hrdata                 integral                 32    'he1c10000 
#   hready                 integral                 1     'h0X       
#   hresp                  integral                 1     'h0        
# -------------------------------------------------------------------
# 
# UVM_INFO .\TB\sv\ahb_master_monitor.sv(74) @ 425: uvm_test_top.tb.env.master_agent.monitor [ahb_master_monitor] Packet Collected :
# ---------------------------------------------------------------------
# Name                      Type                      Size  Value      
# ---------------------------------------------------------------------
# ahb_master_sequence_item  ahb_master_sequence_item  -     @1241      
#   i_addr                  integral                  32    'h0        
#   i_data                  integral                  32    'h11a4e1c1 
#   i_burst_type            burst_t                   3     INCR16     
#   i_data_size             hsize_t                   3     HSIZE_HWORD
#   haddr                   integral                  32    'ha44      
#   i_write                 integral                  1     'h0        
#   i_wrap_en               integral                  1     'h0X       
#   i_busy                  integral                  1     'h0X       
# ---------------------------------------------------------------------
# 
# UVM_INFO .\TB\sv\ahb_master_sequences.sv(48) @ 425: uvm_test_top.tb.env.master_agent.sequencer@@ahb_master_hsize_word_sequences [ahb_master_hsize_word_sequences] drop objection
# [COVER] OKAY COMPLETE observed
# [COVER] OKAY COMPLETE observed
# [COVER] OKAY COMPLETE observed
# [COVER] OKAY COMPLETE observed
# [COVER] OKAY COMPLETE observed
# [COVER] OKAY COMPLETE observed
# [COVER] OKAY COMPLETE observed
# [COVER] OKAY COMPLETE observed
# [COVER] OKAY COMPLETE observed
# [COVER] OKAY COMPLETE observed
# [COVER] OKAY COMPLETE observed
# [COVER] OKAY COMPLETE observed
# [COVER] OKAY COMPLETE observed
# [COVER] OKAY COMPLETE observed
# [COVER] OKAY COMPLETE observed
# [COVER] OKAY COMPLETE observed
# [COVER] OKAY COMPLETE observed
# [COVER] OKAY COMPLETE observed
# [COVER] OKAY COMPLETE observed
# [COVER] OKAY COMPLETE observed
# UVM_INFO C:/questasim64_10.7c/verilog_src/uvm-1.1d/src/base/uvm_objection.svh(1243) @ 625: reporter [TEST_DONE] All end-of-test objections have been dropped. Calling stop tasks
# UVM_INFO C:/questasim64_10.7c/verilog_src/uvm-1.1d/src/base/uvm_objection.svh(1267) @ 625: reporter [TEST_DONE] 'run' phase is ready to proceed to the 'extract' phase
# UVM_INFO .\TB\sv\ahb_scoreboard.sv(271) @ 625: uvm_test_top.tb.env.ahb_scb [SCOREBOARD_ADDR] ADDR PASS: expected=0xa26 actual=0xa26 burst=INCR16 size=HSIZE_HWORD
# UVM_INFO .\TB\sv\ahb_scoreboard.sv(298) @ 625: uvm_test_top.tb.env.ahb_scb [SCOREBOARD_DATA] WRITE PASS: addr=0xa26 data=0x11a4e1b2
# UVM_INFO .\TB\sv\ahb_scoreboard.sv(271) @ 625: uvm_test_top.tb.env.ahb_scb [SCOREBOARD_ADDR] ADDR PASS: expected=0xa28 actual=0xa28 burst=INCR16 size=HSIZE_HWORD
# UVM_INFO .\TB\sv\ahb_scoreboard.sv(298) @ 625: uvm_test_top.tb.env.ahb_scb [SCOREBOARD_DATA] WRITE PASS: addr=0xa28 data=0x11a4e1b3
# UVM_INFO .\TB\sv\ahb_scoreboard.sv(271) @ 625: uvm_test_top.tb.env.ahb_scb [SCOREBOARD_ADDR] ADDR PASS: expected=0xa2a actual=0xa2a burst=INCR16 size=HSIZE_HWORD
# UVM_INFO .\TB\sv\ahb_scoreboard.sv(298) @ 625: uvm_test_top.tb.env.ahb_scb [SCOREBOARD_DATA] WRITE PASS: addr=0xa2a data=0x11a4e1b4
# UVM_INFO .\TB\sv\ahb_scoreboard.sv(271) @ 625: uvm_test_top.tb.env.ahb_scb [SCOREBOARD_ADDR] ADDR PASS: expected=0xa2c actual=0xa2c burst=INCR16 size=HSIZE_HWORD
# UVM_INFO .\TB\sv\ahb_scoreboard.sv(298) @ 625: uvm_test_top.tb.env.ahb_scb [SCOREBOARD_DATA] WRITE PASS: addr=0xa2c data=0x11a4e1b5
# UVM_INFO .\TB\sv\ahb_scoreboard.sv(271) @ 625: uvm_test_top.tb.env.ahb_scb [SCOREBOARD_ADDR] ADDR PASS: expected=0xa2e actual=0xa2e burst=INCR16 size=HSIZE_HWORD
# UVM_INFO .\TB\sv\ahb_scoreboard.sv(298) @ 625: uvm_test_top.tb.env.ahb_scb [SCOREBOARD_DATA] WRITE PASS: addr=0xa2e data=0x11a4e1b6
# UVM_INFO .\TB\sv\ahb_scoreboard.sv(271) @ 625: uvm_test_top.tb.env.ahb_scb [SCOREBOARD_ADDR] ADDR PASS: expected=0xa30 actual=0xa30 burst=INCR16 size=HSIZE_HWORD
# UVM_INFO .\TB\sv\ahb_scoreboard.sv(298) @ 625: uvm_test_top.tb.env.ahb_scb [SCOREBOARD_DATA] WRITE PASS: addr=0xa30 data=0x11a4e1b7
# UVM_INFO .\TB\sv\ahb_scoreboard.sv(271) @ 625: uvm_test_top.tb.env.ahb_scb [SCOREBOARD_ADDR] ADDR PASS: expected=0xa32 actual=0xa32 burst=INCR16 size=HSIZE_HWORD
# UVM_INFO .\TB\sv\ahb_scoreboard.sv(298) @ 625: uvm_test_top.tb.env.ahb_scb [SCOREBOARD_DATA] WRITE PASS: addr=0xa32 data=0x11a4e1b8
# UVM_INFO .\TB\sv\ahb_scoreboard.sv(271) @ 625: uvm_test_top.tb.env.ahb_scb [SCOREBOARD_ADDR] ADDR PASS: expected=0xa34 actual=0xa34 burst=INCR16 size=HSIZE_HWORD
# UVM_INFO .\TB\sv\ahb_scoreboard.sv(298) @ 625: uvm_test_top.tb.env.ahb_scb [SCOREBOARD_DATA] WRITE PASS: addr=0xa34 data=0x11a4e1b9
# UVM_INFO .\TB\sv\ahb_scoreboard.sv(271) @ 625: uvm_test_top.tb.env.ahb_scb [SCOREBOARD_ADDR] ADDR PASS: expected=0xa36 actual=0xa36 burst=INCR16 size=HSIZE_HWORD
# UVM_INFO .\TB\sv\ahb_scoreboard.sv(298) @ 625: uvm_test_top.tb.env.ahb_scb [SCOREBOARD_DATA] WRITE PASS: addr=0xa36 data=0x11a4e1ba
# UVM_INFO .\TB\sv\ahb_scoreboard.sv(271) @ 625: uvm_test_top.tb.env.ahb_scb [SCOREBOARD_ADDR] ADDR PASS: expected=0xa38 actual=0xa38 burst=INCR16 size=HSIZE_HWORD
# UVM_INFO .\TB\sv\ahb_scoreboard.sv(298) @ 625: uvm_test_top.tb.env.ahb_scb [SCOREBOARD_DATA] WRITE PASS: addr=0xa38 data=0x11a4e1bb
# UVM_INFO .\TB\sv\ahb_scoreboard.sv(271) @ 625: uvm_test_top.tb.env.ahb_scb [SCOREBOARD_ADDR] ADDR PASS: expected=0xa3a actual=0xa3a burst=INCR16 size=HSIZE_HWORD
# UVM_INFO .\TB\sv\ahb_scoreboard.sv(298) @ 625: uvm_test_top.tb.env.ahb_scb [SCOREBOARD_DATA] WRITE PASS: addr=0xa3a data=0x11a4e1bc
# UVM_INFO .\TB\sv\ahb_scoreboard.sv(271) @ 625: uvm_test_top.tb.env.ahb_scb [SCOREBOARD_ADDR] ADDR PASS: expected=0xa3c actual=0xa3c burst=INCR16 size=HSIZE_HWORD
# UVM_INFO .\TB\sv\ahb_scoreboard.sv(298) @ 625: uvm_test_top.tb.env.ahb_scb [SCOREBOARD_DATA] WRITE PASS: addr=0xa3c data=0x11a4e1bd
# UVM_INFO .\TB\sv\ahb_scoreboard.sv(271) @ 625: uvm_test_top.tb.env.ahb_scb [SCOREBOARD_ADDR] ADDR PASS: expected=0xa3e actual=0xa3e burst=INCR16 size=HSIZE_HWORD
# UVM_INFO .\TB\sv\ahb_scoreboard.sv(298) @ 625: uvm_test_top.tb.env.ahb_scb [SCOREBOARD_DATA] WRITE PASS: addr=0xa3e data=0x11a4e1be
# UVM_INFO .\TB\sv\ahb_scoreboard.sv(271) @ 625: uvm_test_top.tb.env.ahb_scb [SCOREBOARD_ADDR] ADDR PASS: expected=0xa40 actual=0xa40 burst=INCR16 size=HSIZE_HWORD
# UVM_INFO .\TB\sv\ahb_scoreboard.sv(298) @ 625: uvm_test_top.tb.env.ahb_scb [SCOREBOARD_DATA] WRITE PASS: addr=0xa40 data=0x11a4e1bf
# UVM_INFO .\TB\sv\ahb_scoreboard.sv(271) @ 625: uvm_test_top.tb.env.ahb_scb [SCOREBOARD_ADDR] ADDR PASS: expected=0xa42 actual=0xa42 burst=INCR16 size=HSIZE_HWORD
# UVM_INFO .\TB\sv\ahb_scoreboard.sv(298) @ 625: uvm_test_top.tb.env.ahb_scb [SCOREBOARD_DATA] WRITE PASS: addr=0xa42 data=0x11a4e1c0
# UVM_INFO .\TB\sv\ahb_scoreboard.sv(271) @ 625: uvm_test_top.tb.env.ahb_scb [SCOREBOARD_ADDR] ADDR PASS: expected=0xa44 actual=0xa44 burst=INCR16 size=HSIZE_HWORD
# UVM_INFO .\TB\sv\ahb_scoreboard.sv(298) @ 625: uvm_test_top.tb.env.ahb_scb [SCOREBOARD_DATA] WRITE PASS: addr=0xa44 data=0x11a4e1c1
# UVM_INFO .\TB\sv\ahb_scoreboard.sv(271) @ 625: uvm_test_top.tb.env.ahb_scb [SCOREBOARD_ADDR] ADDR PASS: expected=0xa26 actual=0xa26 burst=INCR16 size=HSIZE_HWORD
# UVM_INFO .\TB\sv\ahb_scoreboard.sv(341) @ 625: uvm_test_top.tb.env.ahb_scb [SCOREBOARD_DATA] READ PASS: addr=0xa26 exp=0xe1b20000 act=0xe1b20000
# UVM_INFO .\TB\sv\ahb_scoreboard.sv(271) @ 625: uvm_test_top.tb.env.ahb_scb [SCOREBOARD_ADDR] ADDR PASS: expected=0xa28 actual=0xa28 burst=INCR16 size=HSIZE_HWORD
# UVM_INFO .\TB\sv\ahb_scoreboard.sv(341) @ 625: uvm_test_top.tb.env.ahb_scb [SCOREBOARD_DATA] READ PASS: addr=0xa28 exp=0xe1b30000 act=0xe1b30000
# UVM_INFO .\TB\sv\ahb_scoreboard.sv(271) @ 625: uvm_test_top.tb.env.ahb_scb [SCOREBOARD_ADDR] ADDR PASS: expected=0xa2a actual=0xa2a burst=INCR16 size=HSIZE_HWORD
# UVM_INFO .\TB\sv\ahb_scoreboard.sv(341) @ 625: uvm_test_top.tb.env.ahb_scb [SCOREBOARD_DATA] READ PASS: addr=0xa2a exp=0xe1b40000 act=0xe1b40000
# UVM_INFO .\TB\sv\ahb_scoreboard.sv(271) @ 625: uvm_test_top.tb.env.ahb_scb [SCOREBOARD_ADDR] ADDR PASS: expected=0xa2c actual=0xa2c burst=INCR16 size=HSIZE_HWORD
# UVM_INFO .\TB\sv\ahb_scoreboard.sv(341) @ 625: uvm_test_top.tb.env.ahb_scb [SCOREBOARD_DATA] READ PASS: addr=0xa2c exp=0xe1b50000 act=0xe1b50000
# UVM_INFO .\TB\sv\ahb_scoreboard.sv(271) @ 625: uvm_test_top.tb.env.ahb_scb [SCOREBOARD_ADDR] ADDR PASS: expected=0xa2e actual=0xa2e burst=INCR16 size=HSIZE_HWORD
# UVM_INFO .\TB\sv\ahb_scoreboard.sv(341) @ 625: uvm_test_top.tb.env.ahb_scb [SCOREBOARD_DATA] READ PASS: addr=0xa2e exp=0xe1b60000 act=0xe1b60000
# UVM_INFO .\TB\sv\ahb_scoreboard.sv(271) @ 625: uvm_test_top.tb.env.ahb_scb [SCOREBOARD_ADDR] ADDR PASS: expected=0xa30 actual=0xa30 burst=INCR16 size=HSIZE_HWORD
# UVM_INFO .\TB\sv\ahb_scoreboard.sv(341) @ 625: uvm_test_top.tb.env.ahb_scb [SCOREBOARD_DATA] READ PASS: addr=0xa30 exp=0xe1b70000 act=0xe1b70000
# UVM_INFO .\TB\sv\ahb_scoreboard.sv(271) @ 625: uvm_test_top.tb.env.ahb_scb [SCOREBOARD_ADDR] ADDR PASS: expected=0xa32 actual=0xa32 burst=INCR16 size=HSIZE_HWORD
# UVM_INFO .\TB\sv\ahb_scoreboard.sv(341) @ 625: uvm_test_top.tb.env.ahb_scb [SCOREBOARD_DATA] READ PASS: addr=0xa32 exp=0xe1b80000 act=0xe1b80000
# UVM_INFO .\TB\sv\ahb_scoreboard.sv(271) @ 625: uvm_test_top.tb.env.ahb_scb [SCOREBOARD_ADDR] ADDR PASS: expected=0xa34 actual=0xa34 burst=INCR16 size=HSIZE_HWORD
# UVM_INFO .\TB\sv\ahb_scoreboard.sv(341) @ 625: uvm_test_top.tb.env.ahb_scb [SCOREBOARD_DATA] READ PASS: addr=0xa34 exp=0xe1b90000 act=0xe1b90000
# UVM_INFO .\TB\sv\ahb_scoreboard.sv(271) @ 625: uvm_test_top.tb.env.ahb_scb [SCOREBOARD_ADDR] ADDR PASS: expected=0xa36 actual=0xa36 burst=INCR16 size=HSIZE_HWORD
# UVM_INFO .\TB\sv\ahb_scoreboard.sv(341) @ 625: uvm_test_top.tb.env.ahb_scb [SCOREBOARD_DATA] READ PASS: addr=0xa36 exp=0xe1ba0000 act=0xe1ba0000
# UVM_INFO .\TB\sv\ahb_scoreboard.sv(271) @ 625: uvm_test_top.tb.env.ahb_scb [SCOREBOARD_ADDR] ADDR PASS: expected=0xa38 actual=0xa38 burst=INCR16 size=HSIZE_HWORD
# UVM_INFO .\TB\sv\ahb_scoreboard.sv(341) @ 625: uvm_test_top.tb.env.ahb_scb [SCOREBOARD_DATA] READ PASS: addr=0xa38 exp=0xe1bb0000 act=0xe1bb0000
# UVM_INFO .\TB\sv\ahb_scoreboard.sv(271) @ 625: uvm_test_top.tb.env.ahb_scb [SCOREBOARD_ADDR] ADDR PASS: expected=0xa3a actual=0xa3a burst=INCR16 size=HSIZE_HWORD
# UVM_INFO .\TB\sv\ahb_scoreboard.sv(341) @ 625: uvm_test_top.tb.env.ahb_scb [SCOREBOARD_DATA] READ PASS: addr=0xa3a exp=0xe1bc0000 act=0xe1bc0000
# UVM_INFO .\TB\sv\ahb_scoreboard.sv(271) @ 625: uvm_test_top.tb.env.ahb_scb [SCOREBOARD_ADDR] ADDR PASS: expected=0xa3c actual=0xa3c burst=INCR16 size=HSIZE_HWORD
# UVM_INFO .\TB\sv\ahb_scoreboard.sv(341) @ 625: uvm_test_top.tb.env.ahb_scb [SCOREBOARD_DATA] READ PASS: addr=0xa3c exp=0xe1bd0000 act=0xe1bd0000
# UVM_INFO .\TB\sv\ahb_scoreboard.sv(271) @ 625: uvm_test_top.tb.env.ahb_scb [SCOREBOARD_ADDR] ADDR PASS: expected=0xa3e actual=0xa3e burst=INCR16 size=HSIZE_HWORD
# UVM_INFO .\TB\sv\ahb_scoreboard.sv(341) @ 625: uvm_test_top.tb.env.ahb_scb [SCOREBOARD_DATA] READ PASS: addr=0xa3e exp=0xe1be0000 act=0xe1be0000
# UVM_INFO .\TB\sv\ahb_scoreboard.sv(271) @ 625: uvm_test_top.tb.env.ahb_scb [SCOREBOARD_ADDR] ADDR PASS: expected=0xa40 actual=0xa40 burst=INCR16 size=HSIZE_HWORD
# UVM_INFO .\TB\sv\ahb_scoreboard.sv(341) @ 625: uvm_test_top.tb.env.ahb_scb [SCOREBOARD_DATA] READ PASS: addr=0xa40 exp=0xe1bf0000 act=0xe1bf0000
# UVM_INFO .\TB\sv\ahb_scoreboard.sv(271) @ 625: uvm_test_top.tb.env.ahb_scb [SCOREBOARD_ADDR] ADDR PASS: expected=0xa42 actual=0xa42 burst=INCR16 size=HSIZE_HWORD
# UVM_INFO .\TB\sv\ahb_scoreboard.sv(341) @ 625: uvm_test_top.tb.env.ahb_scb [SCOREBOARD_DATA] READ PASS: addr=0xa42 exp=0xe1c00000 act=0xe1c00000
# UVM_INFO .\TB\sv\ahb_scoreboard.sv(271) @ 625: uvm_test_top.tb.env.ahb_scb [SCOREBOARD_ADDR] ADDR PASS: expected=0xa44 actual=0xa44 burst=INCR16 size=HSIZE_HWORD
# UVM_INFO .\TB\sv\ahb_scoreboard.sv(341) @ 625: uvm_test_top.tb.env.ahb_scb [SCOREBOARD_DATA] READ PASS: addr=0xa44 exp=0xe1c10000 act=0xe1c10000
# UVM_INFO .\TB\tb\ahb_test_lib.sv(43) @ 625: uvm_test_top [ahb_master_hsize_word_test] Check config usage at check phase
# UVM_INFO .\TB\sv\ahb_scoreboard.sv(366) @ 625: uvm_test_top.tb.env.ahb_scb [ahb_scoreboard] Scoreboard Summary: Total=32 WR=16 RD=16 ERR=0
# UVM_INFO .\TB\sv\ahb_master_monitor.sv(80) @ 625: uvm_test_top.tb.env.master_agent.monitor [ahb_master_monitor] Report: AHB Master Monitor observed 32 transactions
# UVM_INFO .\TB\sv\ahb_slave_monitor.sv(90) @ 625: uvm_test_top.tb.env.slave_agent.monitor [ahb_slave_monitor] Report: AHB slave Monitor observed 32 transactions
# 
# --- UVM Report Summary ---
# 
# ** Report counts by severity
# UVM_INFO :  177
# UVM_WARNING :    0
# UVM_ERROR :    0
# UVM_FATAL :    0
# ** Report counts by id
# [CFG]     2
# [NO_DPI_TSTNAME]     1
# [PHASESEQ]    13
# [RNTST]     1
# [SCOREBOARD_ADDR]    32
# [SCOREBOARD_DATA]    32
# [TEST_DONE]     2
# [UVMTOP]     1
# [ahb_env]     1
# [ahb_master_agent]     2
# [ahb_master_driver]     5
# [ahb_master_hsize_word_sequences]     3
# [ahb_master_hsize_word_test]     5
# [ahb_master_monitor]    36
# [ahb_scoreboard]     1
# [ahb_slave_agent]     1
# [ahb_slave_monitor]    36
# [ahb_tb]     3
# ** Note: $finish    : C:/questasim64_10.7c/verilog_src/uvm-1.1d/src/base/uvm_root.svh(430)
#    Time: 625 ns  Iteration: 53  Instance: /tb_ahb_top
# Break in Task std/mailbox::get at C:/questasim64_10.7c/win64/../verilog_src/std/std.sv line 41
#  coverage save -onexit ./cov_out/ahb_master_hsize_word_test.ucdb
#  quit -sim
# Saving coverage database on exit...
# End time: 12:45:34 on Sep 26,2026, Elapsed time: 0:00:11
# Errors: 0, Warnings: 18
# 
# vsim -c -coverage -wlf ./wlf_out/ahb_master_random_test.wlf work.tb_ahb_top "+SVSEED=random" "+UVM_TESTNAME=ahb_master_random_test" "+UVM_VERBOSITY=UVM_FULL" "+UVM_TR_RECORD" -onfinish final -do "transcript file ./logs/ahb_master_random_test.log; log -r /*; run -all; coverage save -onexit ./cov_out/ahb_master_random_test.ucdb; quit -sim;" -debugDB 
# Start time: 12:45:34 on Sep 26,2026
# ** Note: (vsim-8009) Loading existing optimized design _opt
# Loading sv_std.std
# Loading work.ahb_if(fast)
# Loading work.ahb_slave_pkg(fast)
# Loading work.ahb_master_pkg(fast)
# Loading work.ahb_define_pkg(fast)
# Loading work.uvm_pkg(fast)
# Loading work.ahb_pkg(fast)
# ** Note: (vsim-8785) UVM-aware debugging capabilities will be disabled since no compiled "questa_uvm_pkg" can be found.
# This also means that later if you turn on UVM-aware debugging your debug simulations may have
# different random seeds from your non-debug simulations.
# Loading work.tb_ahb_top(fast)
# Loading work.ahb_if_sv_unit(fast)
# Loading work.ahb_if(fast)
# Loading work.ahb_top_sv_unit(fast)
# Loading work.ahb_top(fast)
# Loading work.ahb_if(fast__1)
# Loading work.ahb_if(fast__2)
# Loading work.ahb_if(fast__3)
# Loading work.ahb_master_sv_unit(fast)
# Loading work.ahb_master(fast)
# Loading work.ahb_address_decoder_sv_unit(fast)
# Loading work.ahb_address_decoder(fast)
# Loading work.ahb_slave_1_sv_unit(fast)
# Loading work.ahb_slave_1(fast)
# Loading work.ahb_slave_2_sv_unit(fast)
